! TOUCHSTONE file generated by CST MICROWAVE STUDIO
! Date and time: Mon May 25 12:27:39 2020
! Project name: filter_n_4_new_test_10.4.cst
! Parameters = {travel=0.2; D=1.9; H=0.338; L=1.9; L50=0.5; Lz=0.7; R=1.1; S=0.2; S1=0.4; Smew=2.325; T=0.035; W1=0.2; W2=0.15; W50=0.73; X=23.4; Y=7.6; translate=9.3}
! Header version: 2015
! Port assignment regex: !\s*Touchstone port\s*([0-9]+)\s*=\s*CST MWS port\s*([0-9]+)\s*\(\"(.*)\"\)(\s*mode\s*([0-9]+))?.*
! Touchstone port assignment:
! Touchstone port 1 = CST MWS port 1 ("")
! Touchstone port 2 = CST MWS port 2 ("")
! Default impedance is overridden by [Reference]
[Version] 2.0
# GHz S MA R 50
[Number of Ports] 2
[Two-Port Data Order] 21_12
[Reference]
50 50 
[Number of Frequencies] 1001
[Network Data]
8                       0.997879        -126.118        0.0110709         146.205        0.0139614        -153.085         0.987092        -124.553
8.004                   0.999025        -126.333        0.0108878         138.177        0.0143698        -162.502         0.986788        -124.616
8.008                   0.999739        -126.557        0.0106138          130.12         0.014705        -171.657         0.986582        -124.677
8.012                          1        -126.786        0.0102525         121.992        0.0149583         179.397         0.986478        -124.736
8.016                   0.999804        -127.015       0.00980858         113.743        0.0151233         170.611          0.98648        -124.794
8.02                    0.999165        -127.238        0.0092884         105.315        0.0151955         161.943         0.986584        -124.854
8.024                   0.998113        -127.451       0.00869966         96.6294        0.0151722         153.351         0.986785        -124.916
8.028                   0.996695         -127.65       0.00805186         87.5817        0.0150526         144.798         0.987074        -124.982
8.032                    0.99497         -127.83       0.00735667         78.0276        0.0148376         136.246         0.987439        -125.051
8.036                    0.99301        -127.989       0.00662877         67.7601        0.0145294         127.655         0.987864        -125.125
8.04                    0.990894        -128.125       0.00588725          56.477        0.0141321         118.984         0.988333        -125.204
8.044                   0.988706        -128.236        0.0051581         43.7375        0.0136515         110.185         0.988828        -125.289
8.048                   0.986534        -128.321       0.00447849         28.9271        0.0130951         101.203         0.989329         -125.38
8.052                   0.984463        -128.382       0.00390224         11.3243        0.0124721         91.9749         0.989818        -125.476
8.056                   0.982575        -128.421       0.00350199        -9.48024        0.0117942          82.421         0.990277        -125.578
8.06                    0.980941        -128.439       0.00335227        -32.6583        0.0110753         72.4455         0.990689        -125.685
8.064                   0.979624        -128.441       0.00348482        -55.7799        0.0103324         61.9312         0.991039        -125.796
8.068                   0.978672        -128.431       0.00386036        -76.4473       0.00958637         50.7371         0.991315        -125.911
8.072                   0.978117        -128.412       0.00440013        -93.8812       0.00886247         38.7022         0.991508        -126.029
8.076                   0.977976        -128.391       0.00503027        -108.511       0.00819132         25.6618          0.99161        -126.148
8.08                    0.978248        -128.371       0.00569716        -121.057       0.00760881         11.4891         0.991619        -126.267
8.084                   0.978914        -128.358       0.00636449        -132.128       0.00715413         -3.8301         0.991535        -126.387
8.088                   0.979941        -128.357       0.00700734        -142.159        0.0068643        -20.1039         0.991362        -126.505
8.092                   0.981281         -128.37       0.00760792        -151.447       0.00676518        -36.8869         0.991107         -126.62
8.096                   0.982874        -128.402       0.00815298        -160.194       0.00686254        -53.5638          0.99078        -126.733
8.1                     0.984652        -128.455       0.00863237        -168.542       0.00713931        -69.5508         0.990392        -126.842
8.104                   0.986539         -128.53        0.0090382         -176.59       0.00756144        -84.4736         0.989958        -126.946
8.108                   0.988458        -128.627       0.00936437         175.588       0.00808783        -98.2079         0.989494        -127.045
8.112                   0.990332        -128.747       0.00960629         167.937       0.00867843        -110.809         0.989017         -127.14
8.116                   0.992086        -128.888        0.0097607         160.413        0.0092984        -122.421         0.988543        -127.229
8.12                    0.993652        -129.047       0.00982559         152.981         0.009919        -133.208         0.988089        -127.314
8.124                   0.994971        -129.223        0.0098001          145.61        0.0105172        -143.327          0.98767        -127.394
8.128                   0.995994        -129.413       0.00968448         138.271        0.0110745        -152.909         0.987302        -127.469
8.132                   0.996685        -129.611       0.00948009         130.938        0.0115764        -162.065         0.986996        -127.542
8.136                   0.997022        -129.815        0.0091893         123.582        0.0120112        -170.882         0.986762        -127.612
8.14                    0.996994        -130.021       0.00881553          116.17        0.0123698        -179.433         0.986608         -127.68
8.144                   0.996609        -130.223       0.00836323         108.662        0.0126452         172.222         0.986536        -127.747
8.148                   0.995884        -130.419       0.00783787         101.008        0.0128322         164.035         0.986549        -127.814
8.152                   0.994852        -130.605       0.00724606         93.1389        0.0129273         155.962         0.986645        -127.882
8.156                   0.993557        -130.777       0.00659562         84.9547        0.0129284         147.966         0.986817        -127.952
8.16                    0.992051        -130.933       0.00589592         76.3048        0.0128348          140.01         0.987059        -128.025
8.164                   0.990396         -131.07       0.00515854         66.9488        0.0126474          132.06          0.98736        -128.101
8.168                   0.988658        -131.189       0.00439867         56.4795        0.0123681         124.081         0.987708        -128.181
8.172                   0.986906        -131.287       0.00363838         44.1673        0.0120004         116.034         0.988088        -128.266
8.176                    0.98521        -131.365       0.00291451         28.6512        0.0115489         107.873         0.988487        -128.355
8.18                    0.983635        -131.425       0.00229734         7.52396        0.0110197         99.5465         0.988889        -128.449
8.184                   0.982243        -131.468       0.00192006        -21.7167        0.0104204         90.9884         0.989278        -128.547
8.188                   0.981085        -131.497        0.0019378        -55.4501       0.00976047         82.1142          0.98964         -128.65
8.192                   0.980206        -131.514       0.00233492        -83.7745       0.00905132         72.8128         0.989962        -128.757
8.196                   0.979635        -131.524       0.00294659        -104.089       0.00830714         62.9349         0.990231        -128.867
8.2                     0.979392         -131.53       0.00364593        -119.074       0.00754582          52.278         0.990439         -128.98
8.204                   0.979481        -131.536       0.00436769        -131.014       0.00679051         40.5702         0.990578        -129.095
8.208                   0.979892        -131.546       0.00507775        -141.181        0.0060719         27.4614         0.990642        -129.212
8.212                   0.980605        -131.563       0.00575578        -150.258       0.00543094          12.556          0.99063        -129.328
8.216                   0.981586        -131.592       0.00638799        -158.625       0.00492021        -4.44671         0.990543        -129.445
8.22                    0.982789        -131.634       0.00696412         -166.51       0.00459864         -23.434         0.990384         -129.56
8.224                   0.984164        -131.692        0.0074761        -174.053       0.00451344        -43.5369         0.990159        -129.673
8.228                   0.985652        -131.768       0.00791744         178.654       0.00467511        -63.2873         0.989876        -129.783
8.232                    0.98719        -131.861       0.00828294         171.546       0.00504982        -81.4102         0.989546         -129.89
8.236                   0.988717        -131.973       0.00856849          164.58        0.0055789        -97.3934          0.98918        -129.994
8.24                    0.990171        -132.103       0.00877102         157.721       0.00620313        -111.355         0.988791        -130.093
8.244                   0.991495        -132.248       0.00888845         150.945       0.00687442        -123.666         0.988394        -130.189
8.248                   0.992637        -132.408       0.00891966         144.231        0.0075568         -134.71         0.988002         -130.28
8.252                   0.993555         -132.58       0.00886445         137.562       0.00822387          -144.8         0.987629        -130.367
8.256                   0.994214         -132.76       0.00872356         130.922       0.00885594        -154.176         0.987287        -130.451
8.26                    0.994592        -132.947       0.00849861         124.297       0.00943803        -163.013         0.986989        -130.531
8.264                   0.994676        -133.135       0.00819208         117.671       0.00995851         -171.44         0.986743        -130.609
8.268                   0.994467        -133.323        0.0078073         111.027        0.0104082        -179.552         0.986559        -130.685
8.272                   0.993974        -133.507       0.00734842         104.343        0.0107801         172.577          0.98644        -130.759
8.276                    0.99322        -133.683       0.00682035         97.5913        0.0110685         164.891          0.98639        -130.833
8.28                    0.992237         -133.85       0.00622877         90.7324        0.0112694         157.346          0.98641        -130.907
8.284                   0.991065        -134.004       0.00558011         83.7064          0.01138         149.903         0.986497        -130.982
8.288                   0.989751        -134.143       0.00488159         76.4164        0.0113987         142.531         0.986647        -131.058
8.292                   0.988348        -134.268       0.00414139         68.6911        0.0113251           135.2         0.986853        -131.137
8.296                   0.986911        -134.376       0.00336919         60.1962        0.0111599         127.883         0.987107        -131.219
8.3                     0.985498        -134.468       0.00257768         50.1796        0.0109046          120.55         0.987397        -131.304
8.304                   0.984163        -134.544       0.00178872         36.5752        0.0105623         113.171         0.987713        -131.393
8.308                   0.982958        -134.606       0.00106549         11.8569        0.0101366         105.709         0.988041        -131.486
8.312                   0.981928        -134.655      0.000717843        -47.2231       0.00963247         98.1211          0.98837        -131.583
8.316                   0.981113        -134.694       0.00116023        -100.173       0.00905602         90.3511         0.988686        -131.684
8.32                     0.98054        -134.726       0.00189139        -122.095       0.00841455         82.3237         0.988978        -131.788
8.324                   0.980231        -134.753       0.00266534        -134.826       0.00771687          73.934         0.989234        -131.895
8.328                   0.980192        -134.779       0.00343093        -144.428       0.00697374         65.0298         0.989445        -132.006
8.332                   0.980422        -134.808       0.00416899        -152.642       0.00619869         55.3816         0.989604        -132.118
8.336                   0.980908        -134.841       0.00486803        -160.124       0.00540972         44.6324         0.989703        -132.232
8.34                    0.981624        -134.882       0.00551933        -167.172       0.00463241         32.2155          0.98974        -132.347
8.344                    0.98254        -134.934        0.0061156         -173.94       0.00390619         17.2461         0.989713        -132.463
8.348                   0.983614        -134.997       0.00665058         179.484       0.00329474        -1.47807         0.989623        -132.578
8.352                   0.984801        -135.075       0.00711884         173.047       0.00289436        -24.7985         0.989473        -132.691
8.356                   0.986051        -135.168       0.00751575         166.714       0.00280751        -51.1965         0.989269        -132.803
8.36                    0.987313        -135.276       0.00783748         160.464       0.00305876        -76.3153         0.989018        -132.913
8.364                   0.988535        -135.398         0.008081          154.28       0.00356587        -97.0775         0.988729         -133.02
8.368                   0.989669        -135.535       0.00824409         148.152       0.00422017        -113.535         0.988412        -133.124
8.372                   0.990669        -135.684       0.00832535         142.072       0.00494248        -126.888         0.988077        -133.224
8.376                   0.991498        -135.843       0.00832419         136.035       0.00568386        -138.186         0.987738        -133.321
8.38                    0.992124        -136.012       0.00824088         130.037       0.00641385        -148.126         0.987404        -133.414
8.384                   0.992523        -136.185       0.00807646         124.075       0.00711216        -157.149         0.987089        -133.505
8.388                   0.992683        -136.363        0.0078328         118.151       0.00776433        -165.533         0.986802        -133.592
8.392                   0.992597         -136.54       0.00751256         112.264       0.00835935        -173.459         0.986553        -133.676
8.396                   0.992272        -136.716       0.00711911         106.418       0.00888859         178.952          0.98635        -133.759
8.4                     0.991721        -136.886       0.00665657         100.618       0.00934514         171.614           0.9862        -133.839
8.404                   0.990968        -137.049       0.00612973         94.8725       0.00972346         164.466         0.986106        -133.919
8.408                   0.990044        -137.202         0.005544         89.1958        0.0100192         157.465          0.98607        -133.998
8.412                   0.988985        -137.344       0.00490538         83.6121        0.0102291         150.574         0.986094        -134.078
8.416                   0.987834        -137.474        0.0042204         78.1641        0.0103509         143.767         0.986174        -134.159
8.42                    0.986636         -137.59       0.00349613         72.9339        0.0103834         137.021         0.986307        -134.241
8.424                   0.985438        -137.693       0.00274018         68.0991        0.0103261         130.314         0.986486        -134.325
8.428                   0.984287        -137.782       0.00196101         64.1285        0.0101797         123.628         0.986705        -134.412
8.432                   0.983226        -137.859       0.00116987         62.7719       0.00994561         116.945         0.986953        -134.502
8.436                   0.982298        -137.925      0.000406201         79.3098       0.00962625         110.243          0.98722        -134.595
8.44                    0.981535        -137.982      0.000521202        -165.214       0.00922478         103.501         0.987497        -134.691
8.444                   0.980967        -138.031       0.00129376        -155.567       0.00874529         96.6892         0.987772        -134.791
8.448                   0.980612        -138.076       0.00207509        -157.576       0.00819266         89.7725         0.988035        -134.894
8.452                   0.980482        -138.119        0.0028381        -161.669       0.00757266         82.7005         0.988274            -135
8.456                   0.980579        -138.162       0.00357262        -166.482       0.00689198          75.401         0.988482        -135.109
8.46                    0.980895        -138.209       0.00427074        -171.623        0.0061584         67.7643          0.98865         -135.22
8.464                   0.981414        -138.261       0.00492534        -176.935        0.0053811         59.6116         0.988771        -135.333
8.468                   0.982112        -138.321       0.00552998         177.656       0.00457153         50.6332         0.988841        -135.448
8.472                   0.982959        -138.391       0.00607875         172.191       0.00374538          40.245         0.988857        -135.563
8.476                   0.983916        -138.472       0.00656635         166.695       0.00292801         27.2377         0.988818        -135.678
8.48                    0.984945        -138.566       0.00698813         161.183       0.00217099         8.89083         0.988725        -135.793
8.484                   0.986002        -138.672       0.00734011         155.666       0.00160247        -20.3393         0.988581        -135.906
8.488                   0.987043        -138.791       0.00761901         150.155       0.00148177        -61.7229         0.988391        -136.018
8.492                   0.988027        -138.922       0.00782229         144.655       0.00189498        -96.8373         0.988162        -136.128
8.496                   0.988915        -139.064       0.00794817         139.175        0.0025856        -118.771         0.987901        -136.236
8.5                      0.98967        -139.216       0.00799565         133.722       0.00336895        -133.428         0.987618        -136.341
8.504                   0.990264        -139.375       0.00796451         128.303       0.00417137        -144.591         0.987321        -136.443
8.508                   0.990675        -139.541       0.00785534         122.929       0.00496024        -153.931         0.987022        -136.542
8.512                   0.990885        -139.711       0.00766951         117.609       0.00571738        -162.226          0.98673        -136.638
