!VG(V) = -0.484									
!VG(mA) = -0.002									
!VD(V) = 3.500									
!VD(mA) = 120.604									
!Temp(V) = 0.025275									
# GHz   S   DB   R   50									
!%	Freq(GHz)	     S11(dB)	    S11(deg)	     S21(dB)	    S21(deg)	     S12(dB)	    S12(deg)	     S22(dB)	    S22(deg)
	0.05	-0.037	-18.557	-69.34	-63.426	-75.183	-50.47	-0.572	-48.32
	0.1	-0.071	-17.774	-70.755	41.684	-74.554	-40.671	-0.534	-78.025
	0.15	-0.59	-33.243	-65.645	6.573	-78.131	-56.827	-0.565	-94.578
	0.2	-1.153	-46.336	-56.812	5.936	-70.409	-19.688	-0.456	-115.492
	0.25	-0.915	-52.04	-48.973	-16.283	-84.684	-44.063	-0.107	-127.333
	0.3	-2.196	-63.943	-41.764	-50.541	-76.424	-64.856	-0.008	-135.457
	0.35	-2.675	-69.984	-35.493	-103.804	-72.565	-144.231	-0.234	-143.737
	0.4	-2.563	-74.52	-33.369	-167.792	-73.292	-137.819	-0.153	-149.788
	0.45	-3.219	-77.956	-34.469	146.61	-64.808	-162.747	-0.211	-154.878
	0.5	-2.789	-79.41	-35.678	115.237	-62.178	160.824	-0.255	-159.002
	0.55	-2.409	-85.619	-36.266	93.475	-63.937	161.507	-0.211	-162.867
	0.6	-2.196	-92.553	-35.173	72.168	-60.698	136.343	-0.231	-166.178
	0.65	-2.055	-99.179	-33.061	40.41	-61.041	115.196	-0.246	-169.257
	0.7	-2.32	-103.983	-32.059	-4.624	-59.353	92.497	-0.218	-171.858
	0.75	-2.276	-107.634	-33.579	-53.904	-61.034	68.095	-0.242	-174.464
	0.8	-1.869	-111.766	-36.338	-100.813	-61.846	54.406	-0.248	-176.863
	0.85	-1.685	-117.369	-41.215	-152.086	-63.857	34.663	-0.243	-179.045
	0.9	-1.607	-122.473	-49.723	169.741	-66.323	29.367	-0.273	178.867
	0.95	-1.43	-127.262	-57.97	148.834	-67.67	25.502	-0.264	176.844
	1	-1.332	-132.244	-64.32	127.677	-73.541	11.8	-0.27	174.951
	1.05	-1.255	-137.145	-67.207	122.195	-73.077	11.191	-0.289	173.024
	1.1	-1.169	-142.181	-65.887	122.012	-69.531	42.94	-0.29	171.251
	1.15	-1.174	-146.903	-64.653	112.754	-75.378	49.595	-0.303	169.498
	1.2	-1.154	-151.524	-62.996	110.929	-71.742	45.744	-0.317	167.749
	1.25	-1.133	-155.863	-61.446	106.504	-72.857	80.364	-0.34	166.106
	1.3	-1.17	-160.168	-60.032	105.03	-72.64	61.09	-0.331	164.418
	1.35	-1.182	-164.198	-58.723	103.571	-72.376	90.178	-0.352	162.828
	1.4	-1.195	-168.23	-58.022	107.368	-71.817	76.512	-0.361	161.103
	1.45	-1.22	-172.149	-57.604	107.423	-72.012	87.26	-0.361	159.604
	1.5	-1.25	-175.954	-57.311	111.423	-71.316	90.327	-0.386	157.963
	1.55	-1.28	-179.733	-57.55	116.088	-71.215	77.019	-0.387	156.345
	1.6	-1.315	176.654	-59.167	128.164	-70.16	73.192	-0.405	154.833
	1.65	-1.356	173.169	-58.85	160.189	-68.197	85.404	-0.427	153.207
	1.7	-1.388	169.708	-56.249	-170.002	-72.756	60.067	-0.432	151.746
	1.75	-1.418	166.256	-51.694	-151.504	-68.307	70.871	-0.455	150.072
	1.8	-1.46	162.931	-47.424	-142.874	-69.763	66.878	-0.46	148.502
	1.85	-1.487	159.524	-43.722	-139.722	-68.955	62.824	-0.466	146.887
	1.9	-1.518	156.277	-40.342	-140.119	-67.809	70.453	-0.483	145.313
	1.95	-1.556	153.011	-37.251	-141.283	-68.174	66.973	-0.49	143.73
	2	-1.587	149.747	-34.403	-143.398	-69.184	48.305	-0.517	142.13
	2.05	-1.635	146.541	-31.741	-146.653	-67.308	56.088	-0.526	140.561
	2.1	-1.676	143.411	-29.279	-150.288	-66.334	56.468	-0.553	139.015
	2.15	-1.712	140.225	-26.933	-154.609	-66.472	55.675	-0.563	137.381
	2.2	-1.742	137.018	-24.711	-159.329	-67.199	61.244	-0.571	135.739
	2.25	-1.782	133.907	-22.618	-164.388	-65.876	49.647	-0.598	134.118
	2.3	-1.809	130.707	-20.608	-169.791	-67.362	53.237	-0.6	132.422
	2.35	-1.864	127.559	-18.732	-175.693	-66.762	62.775	-0.633	130.834
	2.4	-1.905	124.42	-16.945	178.363	-68.089	41.868	-0.658	129.174
	2.45	-1.94	121.266	-15.239	172.106	-68.311	49.557	-0.668	127.541
	2.5	-1.997	118.107	-13.648	165.673	-67.332	47.332	-0.71	125.964
	2.55	-2.045	115.005	-12.132	159.123	-66.641	32.201	-0.721	124.279
	2.6	-2.094	111.849	-10.692	152.411	-67.086	32.66	-0.734	122.661
	2.65	-2.144	108.692	-9.351	145.651	-67.229	42.429	-0.766	120.999
	2.7	-2.188	105.507	-8.072	138.858	-68.653	22.331	-0.782	119.376
	2.75	-2.245	102.191	-6.871	132.031	-67.675	36.451	-0.805	117.65
	2.8	-2.309	99.031	-5.747	125.226	-68.68	46.836	-0.828	115.944
	2.85	-2.362	95.802	-4.678	118.52	-66.243	33.519	-0.844	114.268
	2.9	-2.442	92.47	-3.685	111.843	-68.709	16.379	-0.874	112.59
	2.95	-2.499	89.252	-2.726	105.339	-67.42	33.463	-0.884	110.953
	3	-2.577	86.074	-1.835	98.967	-68.745	25.085	-0.91	109.192
	3.05	-2.655	82.673	-0.975	92.597	-67.596	23.052	-0.919	107.51
	3.1	-2.742	79.475	-0.171	86.423	-67.962	14.224	-0.961	105.829
	3.15	-2.822	76.123	0.608	80.341	-71.696	22.854	-0.966	104.058
	3.2	-2.901	72.684	1.362	74.309	-70.744	18.125	-0.994	102.387
	3.25	-3.013	69.339	2.06	68.49	-67.697	11.114	-1.017	100.608
	3.3	-3.097	65.831	2.762	62.647	-70.761	23.678	-1.028	98.838
	3.35	-3.202	62.432	3.411	56.983	-71.507	6.795	-1.064	97.022
	3.4	-3.317	58.938	4.044	51.477	-71.303	17.62	-1.089	95.356
	3.45	-3.422	55.357	4.657	45.928	-68.409	26.5	-1.113	93.479
	3.5	-3.545	51.916	5.248	40.61	-71.077	15.725	-1.138	91.724
	3.55	-3.656	48.319	5.833	35.317	-74.917	37.732	-1.166	89.925
	3.6	-3.762	44.762	6.389	30.105	-72.681	21.234	-1.201	88.108
	3.65	-3.902	41.078	6.929	24.992	-73.949	12.004	-1.224	86.209
	3.7	-4.024	37.347	7.459	19.9	-73.963	46.34	-1.257	84.368
	3.75	-4.166	33.494	7.982	14.905	-75.93	44.823	-1.278	82.612
	3.8	-4.306	29.61	8.479	9.952	-76.901	14.969	-1.31	80.731
	3.85	-4.445	25.871	8.961	5.155	-77.869	11.562	-1.359	78.842
	3.9	-4.582	21.911	9.433	0.38	-83.397	61.225	-1.391	76.876
	3.95	-4.723	17.998	9.901	-4.382	-75.563	50.57	-1.421	74.968
	4	-4.867	13.911	10.365	-8.971	-75.674	49.872	-1.47	73.051
	4.05	-5.006	9.741	10.804	-13.607	-70.574	36.145	-1.512	71.067
	4.1	-5.153	5.532	11.251	-18.18	-80.728	16.96	-1.562	69.115
	4.15	-5.31	1.298	11.694	-22.681	-74.49	32.011	-1.59	67.022
	4.2	-5.441	-2.923	12.109	-27.105	-77.83	63.1	-1.659	65.104
	4.25	-5.579	-7.267	12.54	-31.527	-79.578	77.769	-1.71	62.955
	4.3	-5.717	-11.63	12.939	-35.814	-77.517	62.052	-1.752	60.915
	4.35	-5.858	-16.229	13.37	-40.1	-75.655	50.259	-1.831	58.835
	4.4	-5.984	-20.765	13.772	-44.339	-73.844	73.297	-1.878	56.693
	4.45	-6.103	-25.372	14.183	-48.546	-73.703	97.614	-1.962	54.533
	4.5	-6.219	-30.051	14.593	-52.801	-74.418	53.865	-2.022	52.236
	4.55	-6.358	-34.785	15.012	-56.949	-78.749	45.251	-2.09	50.108
	4.6	-6.451	-39.561	15.417	-61.2	-73.199	60.657	-2.181	47.723
	4.65	-6.563	-44.181	15.82	-65.272	-73.71	38.842	-2.251	45.418
	4.7	-6.658	-49.025	16.229	-69.494	-78.286	46.82	-2.369	42.926
	4.75	-6.738	-53.82	16.636	-73.671	-77.519	55.278	-2.435	40.498
	4.8	-6.827	-58.657	17.043	-77.857	-87.8	65.917	-2.551	38.054
	4.85	-6.874	-63.429	17.451	-82.161	-76.289	80.903	-2.677	35.372
	4.9	-6.951	-68.164	17.865	-86.442	-83.495	52.09	-2.77	32.78
	4.95	-6.994	-73.12	18.281	-90.871	-81.651	-19.88	-2.919	30.074
	5	-7.042	-77.776	18.668	-95.172	-82.496	24.227	-3.035	27.361
	5.05	-7.079	-82.545	19.056	-99.569	-81.214	105.025	-3.185	24.608
	5.1	-7.091	-87.012	19.426	-104.011	-91.991	73.403	-3.337	21.606
	5.15	-7.119	-91.716	19.825	-108.572	-79.155	11.699	-3.49	18.727
	5.2	-7.126	-96.225	20.192	-113.161	-81.108	-100.099	-3.671	15.633
	5.25	-7.149	-100.723	20.556	-117.838	-82.747	-127.632	-3.848	12.612
	5.3	-7.163	-105.11	20.917	-122.561	-75.818	-108.351	-4.048	9.426
	5.35	-7.189	-109.502	21.261	-127.315	-73.823	-148.632	-4.249	6.182
	5.4	-7.212	-113.757	21.587	-132.087	-74.206	-154.53	-4.46	2.997
	5.45	-7.24	-117.806	21.896	-136.824	-73.513	-155.478	-4.692	-0.356
	5.5	-7.254	-121.797	22.193	-141.644	-70.309	-166.32	-4.922	-3.709
	5.55	-7.26	-125.719	22.48	-146.425	-69.128	165.41	-5.173	-7.122
	5.6	-7.291	-129.552	22.773	-151.337	-70.495	160.103	-5.403	-10.762
	5.65	-7.309	-133.346	23.03	-156.153	-70.031	-173.563	-5.663	-14.258
	5.7	-7.339	-137.082	23.301	-161.137	-66.632	178.147	-5.95	-18.014
	5.75	-7.378	-140.919	23.532	-166.039	-69.852	-172.542	-6.227	-21.654
	5.8	-7.427	-144.673	23.755	-170.956	-64.474	-175.528	-6.551	-25.401
	5.85	-7.503	-148.109	23.94	-175.707	-64.167	176.668	-6.838	-28.947
	5.9	-7.579	-151.485	24.135	179.532	-64.936	154.922	-7.127	-32.507
	5.95	-7.623	-154.75	24.318	174.739	-65.286	153.39	-7.427	-36.525
	6	-7.701	-158.219	24.499	169.946	-64.807	149.885	-7.721	-40.283
	6.05	-7.776	-161.654	24.649	165.146	-65.157	158.95	-8.075	-44.311
	6.1	-7.893	-165.016	24.792	160.465	-64.084	164.563	-8.39	-48.034
	6.15	-8.028	-168.316	24.916	155.81	-61.58	147.677	-8.747	-51.659
	6.2	-8.143	-171.284	25.051	151.261	-61.439	137.413	-9.029	-55.357
	6.25	-8.255	-174.505	25.17	146.654	-60.998	141.217	-9.326	-59.27
	6.3	-8.381	-177.765	25.263	142.114	-60.762	135.135	-9.68	-63.119
	6.35	-8.552	179.199	25.365	137.67	-60.551	135.415	-10.002	-66.794
	6.4	-8.667	176.103	25.461	133.218	-60.971	127.58	-10.28	-70.607
	6.45	-8.827	173.042	25.542	128.817	-61.061	118.966	-10.589	-74.438
	6.5	-8.985	169.697	25.619	124.424	-60.277	118.632	-10.927	-78.061
	6.55	-9.132	166.613	25.686	120.12	-60.291	111.406	-11.205	-81.961
	6.6	-9.315	163.247	25.743	115.82	-60.078	113.584	-11.533	-85.534
	6.65	-9.475	159.992	25.799	111.548	-61.122	109.472	-11.855	-89.627
	6.7	-9.683	156.298	25.826	107.339	-60.423	110.511	-12.248	-93.147
	6.75	-9.915	152.937	25.861	103.341	-59.054	114.316	-12.618	-96.237
	6.8	-10.164	149.556	25.886	99.371	-59.835	104.446	-12.895	-99.207
	6.85	-10.427	146.045	25.925	95.461	-58.083	100.743	-13.176	-102.1
	6.9	-10.657	143.03	25.963	91.527	-57.988	93.099	-13.36	-105.629
	6.95	-10.887	139.653	25.993	87.569	-57.815	89.629	-13.596	-108.797
	7	-11.092	136.179	26.01	83.747	-57.672	80.155	-13.837	-112.435
	7.05	-11.348	132.43	26.019	79.94	-58.749	76.161	-14.107	-116.025
	7.1	-11.635	128.776	26.033	76.317	-58.969	68.049	-14.411	-119.106
	7.15	-11.97	125.73	26.06	72.773	-58.624	63.469	-14.584	-122.116
	7.2	-12.214	122.823	26.095	69.201	-59.869	57.691	-14.779	-125.689
	7.25	-12.407	120.164	26.138	65.666	-60.228	47.825	-14.95	-129.315
	7.3	-12.516	117.347	26.186	62.042	-61.55	41.104	-15.145	-133.466
	7.35	-12.563	114.082	26.222	58.348	-63.409	38.911	-15.39	-137.716
	7.4	-12.629	110.496	26.258	54.694	-65.07	35.454	-15.694	-141.595
	7.45	-12.689	106.816	26.288	51.01	-65.47	46.656	-15.974	-145.243
	7.5	-12.725	103.031	26.305	47.29	-66.853	40.543	-16.232	-149.15
	7.55	-12.752	99.032	26.305	43.677	-65.996	38.771	-16.506	-153.305
	7.6	-12.773	95.034	26.303	40.132	-66.889	53.726	-16.793	-157.195
	7.65	-12.815	90.976	26.305	36.657	-68.048	39.996	-17.088	-160.763
	7.7	-12.834	86.919	26.31	33.186	-70.31	48.095	-17.314	-163.99
	7.75	-12.88	83.02	26.313	29.681	-66.167	54.946	-17.502	-167.87
	7.8	-12.871	79.136	26.296	26.209	-66.089	62.997	-17.671	-171.919
	7.85	-12.842	75.17	26.274	22.895	-68.628	56.349	-17.999	-175.801
	7.9	-12.867	71.089	26.272	19.643	-68.434	62.8	-18.238	-179.367
	7.95	-12.879	67.496	26.271	16.347	-70.078	69.863	-18.403	177.763
	8	-12.88	63.793	26.273	13.075	-73.647	79.357	-18.58	174.411
	8.05	-12.914	60.305	26.273	9.769	-72	82.847	-18.598	171.597
	8.1	-12.896	56.968	26.263	6.477	-68.939	90.306	-18.717	168.06
	8.15	-12.91	53.715	26.249	3.235	-67.408	81.558	-18.69	164.508
	8.2	-12.882	50.677	26.237	0.016	-66.088	77.833	-18.716	161.316
	8.25	-12.838	47.879	26.211	-3.161	-68.122	79.396	-18.7	157.082
	8.3	-12.794	44.806	26.195	-6.26	-68.426	66.8	-18.708	153.595
	8.35	-12.755	41.876	26.179	-9.328	-69.844	69.795	-18.833	150.087
	8.4	-12.724	39.047	26.162	-12.412	-73.525	81.756	-18.818	146.719
	8.45	-12.684	35.912	26.147	-15.361	-72.512	71.54	-18.926	143.825
	8.5	-12.694	33.071	26.143	-18.372	-71.492	99.745	-18.97	141.114
	8.55	-12.726	30.36	26.139	-21.382	-70.787	67.84	-18.948	139.132
	8.6	-12.716	27.93	26.126	-24.365	-68.41	104.523	-18.896	136.504
	8.65	-12.731	25.458	26.112	-27.296	-70.735	94.393	-18.848	133.912
	8.7	-12.722	22.718	26.112	-30.201	-73.734	92.924	-18.887	131.943
	8.75	-12.8	20.288	26.11	-33.138	-73.875	113.249	-18.809	130.243
	8.8	-12.849	17.911	26.103	-36.073	-71.685	100.567	-18.73	128.446
	8.85	-12.893	15.617	26.1	-38.958	-69.345	102.28	-18.675	126.58
	8.9	-12.974	13.343	26.098	-41.853	-69.165	127.423	-18.555	125.392
	8.95	-13.053	11.174	26.093	-44.761	-69.351	114.606	-18.463	123.972
	9	-13.162	9.247	26.085	-47.617	-73.01	120.125	-18.297	122.171
	9.05	-13.278	7.093	26.076	-50.461	-69.574	98.176	-18.207	120.929
	9.1	-13.361	5.137	26.072	-53.251	-68.55	119.766	-18.13	119.206
	9.15	-13.459	3.012	26.074	-56.04	-70.407	93.418	-18.041	118.327
	9.2	-13.564	0.919	26.078	-58.794	-66.739	108.525	-18.025	117.233
	9.25	-13.756	-1.412	26.086	-61.62	-68.32	116.895	-17.923	116.421
	9.3	-13.93	-3.462	26.086	-64.426	-69.246	101.627	-17.828	115.999
	9.35	-14.144	-5.376	26.084	-67.203	-67.845	115.798	-17.713	114.946
	9.4	-14.324	-7.511	26.09	-69.937	-69.103	101.989	-17.602	114.277
	9.45	-14.533	-9.469	26.095	-72.688	-68.475	104.154	-17.572	113.697
	9.5	-14.751	-11.736	26.103	-75.398	-67.098	110.979	-17.46	113.101
	9.55	-14.963	-14.116	26.111	-78.129	-69.457	131.03	-17.442	112.678
	9.6	-15.254	-16.706	26.131	-80.902	-68.298	133.569	-17.427	112.567
	9.65	-15.64	-19.485	26.14	-83.723	-65.773	119.636	-17.274	113.175
	9.7	-16.028	-21.555	26.136	-86.489	-67.884	148.499	-17.123	112.983
	9.75	-16.387	-23.462	26.132	-89.165	-63.924	112.192	-16.963	112.755
	9.8	-16.698	-25.967	26.141	-91.837	-65.31	114.892	-16.931	112.374
	9.85	-17.082	-28.474	26.152	-94.545	-65.504	107.753	-16.828	112.114
	9.9	-17.449	-31.192	26.16	-97.214	-62.405	116.462	-16.757	112.316
	9.95	-17.862	-33.901	26.171	-99.889	-64.763	101.358	-16.744	112.038
	10	-18.331	-37.726	26.189	-102.583	-65.646	104.056	-16.675	112.148
	10.05	-18.737	-41.445	26.201	-105.271	-63.751	96.782	-16.622	112.391
	10.1	-19.272	-45.136	26.216	-107.959	-63.843	107.067	-16.567	112.493
	10.15	-19.763	-50.278	26.232	-110.675	-65.863	107.267	-16.527	113.101
	10.2	-20.423	-54.606	26.237	-113.4	-65.486	109.382	-16.428	113.29
	10.25	-21.054	-59.419	26.241	-116.039	-63.461	100.354	-16.314	113.203
	10.3	-21.489	-64.713	26.252	-118.689	-64.611	119.924	-16.288	113.252
	10.35	-22.059	-70.681	26.267	-121.328	-64.276	103.277	-16.253	113.274
	10.4	-22.483	-78.302	26.281	-123.99	-64.842	113.798	-16.192	113.634
	10.45	-22.934	-84.816	26.292	-126.603	-63.813	92.323	-16.191	113.557
	10.5	-23.18	-93.013	26.31	-129.263	-63.691	93.809	-16.155	113.678
	10.55	-23.365	-100.841	26.324	-131.877	-62.566	81.737	-16.149	113.775
	10.6	-23.383	-109.303	26.342	-134.51	-63.38	101.495	-16.141	113.903
	10.65	-23.154	-117.116	26.366	-137.158	-65.753	94.535	-16.145	114.043
	10.7	-22.978	-125.516	26.384	-139.832	-64.08	95.506	-16.124	114.367
	10.75	-22.56	-133.399	26.401	-142.498	-64.909	93.429	-16.105	114.495
	10.8	-22.211	-140.709	26.415	-145.16	-64.403	91.48	-16.058	114.658
	10.85	-21.749	-147.524	26.427	-147.787	-62.346	88.118	-16.027	114.623
	10.9	-21.393	-152.64	26.441	-150.375	-62.502	97.204	-16.031	114.293
	10.95	-20.911	-158.05	26.463	-152.977	-62.077	89.447	-16.064	114.031
	11	-20.414	-162.098	26.491	-155.566	-62.68	87.547	-16.123	113.894
	11.05	-19.972	-166.145	26.518	-158.212	-61.608	85.491	-16.185	113.735
	11.1	-19.453	-170.045	26.544	-160.839	-62.277	85.265	-16.237	113.611
	11.15	-19.053	-173.679	26.573	-163.508	-61.738	81.417	-16.326	113.629
	11.2	-18.544	-177.081	26.599	-166.191	-62.756	75.359	-16.368	113.479
	11.25	-18.152	179.939	26.616	-168.855	-62.898	73.388	-16.392	113.28
	11.3	-17.819	176.367	26.641	-171.462	-62.628	78.44	-16.441	112.687
	11.35	-17.486	173.896	26.675	-174.072	-63.175	76.372	-16.56	111.998
	11.4	-17.19	171.453	26.714	-176.755	-61.665	71.594	-16.705	111.638
	11.45	-16.83	168.634	26.743	-179.469	-62.216	66.303	-16.79	111.278
	11.5	-16.578	165.995	26.771	177.869	-62.567	71.761	-16.89	110.566
	11.55	-16.356	163.749	26.812	175.214	-61.651	61.618	-17.078	109.915
	11.6	-16.089	161.844	26.855	172.428	-61.718	58.097	-17.247	109.509
	11.65	-15.806	159.736	26.888	169.643	-62.775	61.156	-17.356	109.305
	11.7	-15.526	157.146	26.911	166.834	-60.853	51.636	-17.45	108.576
	11.75	-15.304	154.479	26.931	164.133	-62.166	53.603	-17.532	107.568
	11.8	-15.118	151.841	26.956	161.393	-62.165	46.937	-17.659	106.459
	11.85	-14.962	149.052	26.981	158.775	-61.926	52.628	-17.777	104.886
	11.9	-14.898	146.528	27.024	156.138	-64.506	59.807	-17.999	103.002
	11.95	-14.826	143.966	27.081	153.414	-61.586	58.439	-18.283	101.258
	12	-14.741	142.048	27.137	150.575	-61.871	56.137	-18.648	99.954
	12.05	-14.661	139.9	27.187	147.662	-59.872	46.862	-18.954	98.686
	12.1	-14.525	137.771	27.227	144.728	-61.801	41.303	-19.246	97.931
	12.15	-14.466	135.558	27.263	141.794	-60.625	43.433	-19.555	96.858
	12.2	-14.328	133.416	27.297	138.799	-59.717	37.953	-19.837	96.208
	12.25	-14.186	131.259	27.314	135.81	-60.234	32.651	-20.052	95.879
	12.3	-14.05	128.13	27.329	132.949	-60.717	31.868	-20.168	94.047
	12.35	-13.981	125.449	27.361	130.01	-60.536	31.942	-20.421	92.716
	12.4	-13.952	122.709	27.394	127.047	-60.604	28.13	-20.765	91.286
	12.45	-13.829	120.146	27.41	123.978	-59.854	24.399	-20.961	90.643
	12.5	-13.766	117.48	27.419	120.967	-59.367	22.745	-21.199	90.187
	12.55	-13.644	114.279	27.424	117.992	-59.201	20.836	-21.304	88.601
	12.6	-13.595	111.55	27.43	114.998	-59.796	13.45	-21.441	88.331
	12.65	-13.515	108.47	27.435	112.005	-59.16	14.343	-21.542	87.288
	12.7	-13.395	105.801	27.437	108.999	-58.778	7.393	-21.51	86.427
	12.75	-13.329	102.692	27.437	106.026	-59.174	8.342	-21.625	84.937
	12.8	-13.136	99.822	27.428	103.017	-58.317	7.167	-21.563	84.282
	12.85	-13.042	96.817	27.423	100.048	-57.868	2.743	-21.585	83.661
	12.9	-12.842	93.31	27.415	97.09	-57.839	-2.266	-21.442	81.954
	12.95	-12.679	90.235	27.41	94.121	-57.921	-4.127	-21.29	81.272
	13	-12.527	86.565	27.4	91.149	-57.227	-9.602	-21.182	79.415
	13.05	-12.326	83.437	27.387	88.171	-56.868	-12.988	-20.934	78.639
	13.1	-12.2	79.77	27.375	85.203	-57.597	-20.108	-20.878	77.147
	13.15	-11.981	76.613	27.358	82.23	-57.495	-15.596	-20.6	75.966
	13.2	-11.824	73.278	27.341	79.305	-57.174	-22.438	-20.441	75.447
	13.25	-11.587	69.643	27.327	76.351	-57.091	-24.896	-20.174	73.484
	13.3	-11.405	66.478	27.315	73.394	-57.289	-30.834	-19.862	73.039
	13.35	-11.208	62.831	27.297	70.39	-56.924	-33.057	-19.671	71.894
	13.4	-10.974	59.753	27.273	67.413	-57.498	-36.624	-19.281	71.015
	13.45	-10.787	56.27	27.251	64.43	-56.786	-35.584	-19.031	70.219
	13.5	-10.545	52.879	27.233	61.443	-56.982	-42.828	-18.663	68.512
	13.55	-10.368	49.783	27.214	58.406	-56.211	-40.468	-18.426	68
	13.6	-10.173	46.409	27.184	55.34	-57.136	-41.917	-18.171	66.403
	13.65	-9.994	43.531	27.145	52.31	-56.29	-42.214	-17.874	66.314
	13.7	-9.799	40.419	27.105	49.304	-56.351	-45.144	-17.708	64.993
	13.75	-9.601	37.659	27.062	46.328	-55.936	-47.069	-17.37	64.247
	13.8	-9.432	34.744	27.021	43.321	-55.501	-50.821	-17.256	64.166
	13.85	-9.237	32.039	26.975	40.322	-55.335	-57.966	-16.989	63.297
	13.9	-9.077	29.572	26.923	37.32	-55.414	-57.465	-16.767	63.961
	13.95	-8.877	26.957	26.872	34.358	-55.043	-57.437	-16.535	63.404
	14	-8.688	24.541	26.818	31.436	-55.142	-68.449	-16.192	63.357
	14.05	-8.475	21.968	26.767	28.485	-54.731	-66.74	-16.023	63.334
	14.1	-8.274	19.503	26.712	25.589	-54.386	-68.153	-15.734	62.859
	14.15	-8.106	17.038	26.66	22.67	-54.912	-74.468	-15.519	63.132
	14.2	-7.921	14.524	26.612	19.774	-54.605	-75.96	-15.297	62.905
	14.25	-7.752	12.132	26.568	16.832	-54.5	-80.756	-15.038	63.298
	14.3	-7.596	9.663	26.517	13.862	-54.553	-81.322	-14.824	63.371
	14.35	-7.447	7.332	26.461	10.899	-54.78	-82.919	-14.513	63.719
	14.4	-7.309	4.95	26.406	7.9	-54.759	-88.319	-14.272	63.929
	14.45	-7.163	2.603	26.341	4.914	-54.685	-91.95	-13.954	63.682
	14.5	-7.046	0.344	26.274	1.941	-54.642	-89.251	-13.691	63.877
	14.55	-6.941	-1.986	26.205	-1.023	-54.486	-91.648	-13.447	63.562
	14.6	-6.843	-4.011	26.131	-3.936	-54.551	-91.023	-13.168	63.497
	14.65	-6.757	-6.104	26.06	-6.874	-54.565	-96.466	-12.954	63.431
	14.7	-6.643	-8.063	25.989	-9.778	-54.37	-95.471	-12.681	63.241
	14.75	-6.554	-9.984	25.922	-12.684	-54.149	-98.715	-12.426	63.311
