!File name = SN03_25C_5V_Phase16.s2p
!Date = 2/3/2014
!Time = 2:35 PM
!Test duration(min) = 0.07
!Test = SPars
!MPTS version = 7.120.8
!Comments = 
!set_LD1(binary) = 16
!set_LD2(binary) = 524271
!test = SPars
!date_code = 20140203
!file_name = SN03_25C_5V_Phase16.s2p
!VREF(V) = 5.000
!VREF(mA) = 0.001
# GHz   S   DB   R   50
!%	Freq(GHz)	     S11(dB)	    S11(deg)	     S21(dB)	    S21(deg)	     S12(dB)	    S12(deg)	     S22(dB)	    S22(deg)
	5.000000000	      -2.109	     172.475	     -29.612	      82.270	     -29.633	      82.278	      -5.235	    -122.707
	5.200000000	      -2.304	     160.911	     -28.095	      71.147	     -28.105	      71.137	      -5.737	    -126.969
	5.400000000	      -2.527	     148.871	     -26.601	      59.668	     -26.614	      59.628	      -6.280	    -131.287
	5.600000000	      -2.789	     136.437	     -25.211	      47.505	     -25.223	      47.508	      -6.897	    -135.927
	5.800000000	      -3.106	     123.654	     -23.866	      34.792	     -23.881	      34.799	      -7.538	    -140.664
	6.000000000	      -3.500	     110.677	     -22.637	      21.430	     -22.646	      21.429	      -8.215	    -145.547
	6.200000000	      -3.990	      97.616	     -21.518	       7.719	     -21.531	       7.722	      -8.916	    -150.732
	6.400000000	      -4.621	      84.586	     -20.505	      -6.269	     -20.516	      -6.291	      -9.613	    -156.002
	6.600000000	      -5.409	      71.805	     -19.589	     -20.578	     -19.600	     -20.606	     -10.315	    -161.228
	6.800000000	      -6.397	      59.359	     -18.777	     -35.264	     -18.807	     -35.141	     -10.950	    -166.705
	7.000000000	      -7.624	      47.752	     -18.108	     -49.891	     -18.132	     -49.783	     -11.540	    -172.078
	7.200000000	      -9.122	      37.313	     -17.557	     -64.498	     -17.582	     -64.412	     -12.083	    -177.692
	7.400000000	     -10.959	      28.773	     -17.125	     -78.989	     -17.150	     -78.899	     -12.516	     176.788
	7.600000000	     -13.085	      23.448	     -16.803	     -93.226	     -16.829	     -93.134	     -12.890	     171.083
	7.800000000	     -15.551	      23.293	     -16.577	    -107.092	     -16.602	    -106.999	     -13.219	     165.317
	8.000000000	     -17.744	      30.916	     -16.430	    -120.545	     -16.457	    -120.449	     -13.481	     159.407
	8.200000000	     -18.773	      45.641	     -16.343	    -133.539	     -16.365	    -133.468	     -13.772	     153.648
	8.400000000	     -18.089	      58.618	     -16.302	    -146.066	     -16.324	    -146.001	     -14.049	     148.266
	8.600000000	     -16.685	      64.346	     -16.291	    -158.187	     -16.310	    -158.120	     -14.402	     142.816
	8.800000000	     -15.317	      64.238	     -16.304	    -169.938	     -16.322	    -169.870	     -14.805	     137.398
	9.000000000	     -14.191	      61.001	     -16.327	     178.687	     -16.343	     178.748	     -15.304	     132.015
	9.200000000	     -13.321	      55.940	     -16.355	     167.601	     -16.371	     167.674	     -15.866	     126.392
	9.400000000	     -12.635	      50.251	     -16.383	     156.788	     -16.404	     156.861	     -16.491	     120.178
	9.600000000	     -12.090	      43.765	     -16.414	     146.165	     -16.433	     146.261	     -17.310	     113.535
	9.800000000	     -11.681	      37.452	     -16.441	     135.745	     -16.462	     135.850	     -18.140	     105.476
	10.000000000	     -11.346	      30.953	     -16.468	     125.491	     -16.492	     125.610	     -19.018	      97.406
	10.200000000	     -11.081	      24.586	     -16.499	     115.373	     -16.517	     115.482	     -19.914	      87.067
	10.400000000	     -10.906	      18.417	     -16.522	     105.379	     -16.540	     105.470	     -20.599	      75.530
	10.600000000	     -10.755	      12.301	     -16.545	      95.483	     -16.564	      95.566	     -21.336	      62.334
	10.800000000	     -10.652	       6.637	     -16.574	      85.707	     -16.589	      85.728	     -21.668	      47.978
	11.000000000	     -10.580	       1.512	     -16.602	      76.009	     -16.615	      76.019	     -21.591	      35.143
	11.200000000	     -10.573	      -3.408	     -16.618	      66.347	     -16.631	      66.365	     -21.317	      22.889
	11.400000000	     -10.587	      -7.720	     -16.638	      56.729	     -16.651	      56.744	     -20.812	      12.388
	11.600000000	     -10.612	     -11.353	     -16.658	      47.168	     -16.669	      47.182	     -20.270	       3.924
	11.800000000	     -10.708	     -14.371	     -16.680	      37.650	     -16.691	      37.651	     -19.693	      -3.278
	12.000000000	     -10.794	     -17.019	     -16.698	      28.198	     -16.712	      28.216	     -19.206	      -8.326
	12.200000000	     -10.890	     -18.552	     -16.713	      18.783	     -16.720	      18.743	     -18.768	     -13.088
	12.400000000	     -11.034	     -19.716	     -16.734	       9.393	     -16.742	       9.368	     -18.319	     -16.112
	12.600000000	     -11.153	     -19.990	     -16.757	       0.100	     -16.762	       0.078	     -18.146	     -18.727
	12.800000000	     -11.291	     -19.574	     -16.774	      -9.114	     -16.781	      -9.147	     -17.923	     -20.982
	13.000000000	     -11.366	     -18.957	     -16.787	     -18.302	     -16.794	     -18.329	     -17.773	     -22.473
	13.200000000	     -11.365	     -17.729	     -16.803	     -27.417	     -16.809	     -27.436	     -17.659	     -24.112
	13.400000000	     -11.336	     -16.380	     -16.816	     -36.518	     -16.822	     -36.558	     -17.563	     -25.869
	13.600000000	     -11.268	     -15.190	     -16.829	     -45.545	     -16.833	     -45.585	     -17.447	     -27.190
	13.800000000	     -11.120	     -13.742	     -16.847	     -54.518	     -16.851	     -54.583	     -17.474	     -28.638
	14.000000000	     -10.971	     -12.811	     -16.858	     -63.469	     -16.864	     -63.528	     -17.460	     -30.379
	14.200000000	     -10.765	     -11.939	     -16.871	     -72.335	     -16.877	     -72.405	     -17.605	     -32.335
	14.400000000	     -10.555	     -11.398	     -16.884	     -81.220	     -16.890	     -81.275	     -17.647	     -35.011
	14.600000000	     -10.358	     -11.344	     -16.899	     -90.009	     -16.907	     -90.054	     -17.834	     -36.639
	14.800000000	     -10.151	     -11.737	     -16.915	     -98.754	     -16.922	     -98.789	     -18.036	     -37.828
	15.000000000	     -10.036	     -12.250	     -16.928	    -107.434	     -16.937	    -107.489	     -18.297	     -40.256
	15.200000000	      -9.931	     -13.489	     -16.940	    -116.104	     -16.948	    -116.156	     -18.577	     -42.289
	15.400000000	      -9.893	     -14.976	     -16.949	    -124.698	     -16.954	    -124.745	     -19.032	     -44.535
	15.600000000	      -9.872	     -16.937	     -16.949	    -133.362	     -16.962	    -133.344	     -19.495	     -46.135
	15.800000000	      -9.908	     -19.471	     -16.948	    -141.886	     -16.960	    -141.891	     -20.140	     -47.858
	16.000000000	     -10.002	     -22.405	     -16.942	    -150.434	     -16.957	    -150.420	     -20.805	     -48.887
	16.200000000	     -10.063	     -25.668	     -16.929	    -158.967	     -16.947	    -158.926	     -21.643	     -49.971
	16.400000000	     -10.199	     -29.389	     -16.911	    -167.528	     -16.927	    -167.491	     -22.600	     -51.231
	16.600000000	     -10.347	     -33.272	     -16.884	    -176.097	     -16.903	    -176.062	     -23.914	     -52.675
	16.800000000	     -10.398	     -37.442	     -16.860	     175.235	     -16.878	     175.279	     -25.398	     -54.783
	17.000000000	     -10.482	     -41.691	     -16.845	     166.458	     -16.862	     166.494	     -26.982	     -54.002
	17.200000000	     -10.516	     -46.092	     -16.856	     157.638	     -16.873	     157.679	     -28.115	     -53.846
	17.400000000	     -10.529	     -50.938	     -16.895	     148.961	     -16.913	     149.008	     -30.949	     -57.659
	17.600000000	     -10.471	     -55.082	     -16.905	     140.431	     -16.921	     140.489	     -34.243	     -59.010
	17.800000000	     -10.416	     -59.793	     -16.923	     131.808	     -16.940	     131.837	     -40.202	     -57.076
	18.000000000	     -10.321	     -63.649	     -16.950	     123.203	     -16.967	     123.245	     -49.292	      31.038
	18.200000000	     -10.231	     -67.768	     -16.979	     114.646	     -16.996	     114.689	     -40.045	      94.230
	18.400000000	     -10.101	     -71.478	     -17.014	     106.159	     -17.031	     106.192	     -34.269	      93.194
	18.600000000	      -9.994	     -74.850	     -17.042	      97.702	     -17.062	      97.734	     -31.158	      95.458
	18.800000000	      -9.940	     -77.887	     -17.073	      89.311	     -17.090	      89.352	     -28.681	      91.773
	19.000000000	      -9.887	     -80.798	     -17.098	      80.942	     -17.115	      80.984	     -26.955	      92.466
	19.200000000	      -9.883	     -83.339	     -17.117	      72.673	     -17.127	      72.663	     -25.855	      89.624
	19.400000000	      -9.790	     -85.709	     -17.119	      64.399	     -17.129	      64.404	     -24.737	      89.536
	19.600000000	      -9.751	     -89.471	     -17.061	      55.901	     -17.074	      55.909	     -23.255	      90.586
	19.800000000	     -10.186	     -91.157	     -17.133	      47.120	     -17.143	      47.124	     -21.635	      87.489
	20.000000000	     -10.274	     -92.013	     -17.163	      38.910	     -17.174	      38.936	     -21.023	      81.102
	20.200000000	     -10.334	     -93.786	     -17.162	      30.656	     -17.172	      30.662	     -20.235	      80.498
	20.400000000	     -10.414	     -95.947	     -17.134	      22.230	     -17.147	      22.236	     -19.482	      78.466
	20.600000000	     -10.658	    -100.607	     -17.128	      13.456	     -17.139	      13.456	     -18.810	      76.547
	20.800000000	     -11.278	    -103.607	     -17.172	       4.811	     -17.183	       4.809	     -18.199	      73.811
	21.000000000	     -11.813	    -105.962	     -17.203	      -3.669	     -17.211	      -3.680	     -17.754	      72.850
	21.200000000	     -12.447	    -108.568	     -17.222	     -12.198	     -17.230	     -12.210	     -17.136	      70.876
	21.400000000	     -13.176	    -111.313	     -17.237	     -20.780	     -17.250	     -20.759	     -16.729	      70.552
	21.600000000	     -13.886	    -114.619	     -17.259	     -29.446	     -17.269	     -29.435	     -16.328	      68.520
	21.800000000	     -14.649	    -117.669	     -17.286	     -38.160	     -17.299	     -38.144	     -15.988	      67.596
	22.000000000	     -15.494	    -121.081	     -17.320	     -46.910	     -17.331	     -46.881	     -15.619	      64.904
	22.200000000	     -16.268	    -123.393	     -17.354	     -55.674	     -17.368	     -55.648	     -15.387	      62.961
	22.400000000	     -16.934	    -126.983	     -17.396	     -64.546	     -17.407	     -64.534	     -15.137	      60.070
	22.600000000	     -17.599	    -130.093	     -17.447	     -73.498	     -17.458	     -73.487	     -15.075	      57.123
	22.800000000	     -18.106	    -133.188	     -17.512	     -82.611	     -17.522	     -82.600	     -14.958	      53.429
	23.000000000	     -18.300	    -135.935	     -17.629	     -91.861	     -17.639	     -91.865	     -14.931	      50.074
	23.200000000	     -18.533	    -136.949	     -17.772	    -100.931	     -17.786	    -100.920	     -14.669	      45.537
	23.400000000	     -18.333	    -139.152	     -17.960	    -110.166	     -17.972	    -110.154	     -14.546	      41.522
	23.600000000	     -18.302	    -140.572	     -18.285	    -118.988	     -18.299	    -118.955	     -14.272	      37.228
	23.800000000	     -17.905	    -135.264	     -18.564	    -125.713	     -18.580	    -125.675	     -14.073	      31.080
	24.000000000	     -16.654	    -133.364	     -18.439	    -132.929	     -18.452	    -132.899	     -13.652	      25.328
	24.200000000	     -15.322	    -135.499	     -18.366	    -142.053	     -18.382	    -142.022	     -13.705	      19.356
	24.400000000	     -14.143	    -138.609	     -18.411	    -151.370	     -18.429	    -151.336	     -13.391	      15.088
	24.600000000	     -13.156	    -142.719	     -18.502	    -160.711	     -18.519	    -160.671	     -13.201	      11.556
	24.800000000	     -12.092	    -145.918	     -18.635	    -170.071	     -18.649	    -170.024	     -12.874	       7.612
	25.000000000	     -11.254	    -151.012	     -18.794	    -179.369	     -18.808	    -179.333	     -12.611	       3.739