!File name = SN03_25C_5V_Phase8.s2p
!Date = 2/3/2014
!Time = 2:34 PM
!Test duration(min) = 0.07
!Test = SPars
!MPTS version = 7.120.8
!Comments = 
!set_LD1(binary) = 8
!set_LD2(binary) = 524279
!test = SPars
!date_code = 20140203
!file_name = SN03_25C_5V_Phase8.s2p
!VREF(V) = 5.000
!VREF(mA) = 0.001
# GHz   S   DB   R   50
!%	Freq(GHz)	     S11(dB)	    S11(deg)	     S21(dB)	    S21(deg)	     S12(dB)	    S12(deg)	     S22(dB)	    S22(deg)
	5.000000000	      -2.813	     175.964	     -24.093	      72.950	     -24.104	      72.927	      -1.908	    -131.556
	5.200000000	      -3.092	     165.555	     -22.599	      60.878	     -22.605	      60.876	      -2.266	    -138.678
	5.400000000	      -3.393	     154.946	     -21.178	      48.485	     -21.189	      48.483	      -2.693	    -146.212
	5.600000000	      -3.711	     144.250	     -19.882	      35.567	     -19.891	      35.544	      -3.210	    -154.395
	5.800000000	      -4.052	     133.557	     -18.669	      22.254	     -18.678	      22.229	      -3.792	    -162.974
	6.000000000	      -4.412	     123.036	     -17.585	       8.542	     -17.597	       8.540	      -4.453	    -171.966
	6.200000000	      -4.793	     112.757	     -16.635	      -5.269	     -16.647	      -5.273	      -5.174	     178.613
	6.400000000	      -5.205	     102.844	     -15.798	     -19.042	     -15.810	     -19.033	      -5.942	     169.072
	6.600000000	      -5.633	      93.382	     -15.054	     -32.746	     -15.066	     -32.736	      -6.756	     159.452
	6.800000000	      -6.088	      84.275	     -14.402	     -46.382	     -14.421	     -46.328	      -7.561	     149.878
	7.000000000	      -6.559	      75.736	     -13.843	     -59.745	     -13.860	     -59.703	      -8.382	     140.540
	7.200000000	      -7.048	      67.665	     -13.353	     -72.892	     -13.371	     -72.856	      -9.187	     131.218
	7.400000000	      -7.568	      60.154	     -12.926	     -85.825	     -12.944	     -85.785	      -9.976	     122.498
	7.600000000	      -8.063	      53.084	     -12.550	     -98.521	     -12.569	     -98.477	     -10.737	     113.945
	7.800000000	      -8.613	      46.727	     -12.225	    -110.965	     -12.243	    -110.928	     -11.492	     105.785
	8.000000000	      -9.121	      40.651	     -11.938	    -123.203	     -11.957	    -123.156	     -12.210	      97.951
	8.200000000	      -9.642	      35.022	     -11.684	    -135.234	     -11.696	    -135.236	     -12.938	      90.120
	8.400000000	     -10.153	      29.799	     -11.459	    -147.066	     -11.469	    -147.065	     -13.714	      82.521
	8.600000000	     -10.673	      24.908	     -11.262	    -158.725	     -11.271	    -158.729	     -14.498	      74.214
	8.800000000	     -11.176	      20.217	     -11.093	    -170.241	     -11.101	    -170.241	     -15.295	      65.392
	9.000000000	     -11.676	      15.874	     -10.944	     178.418	     -10.953	     178.409	     -16.114	      55.320
	9.200000000	     -12.160	      11.685	     -10.817	     167.211	     -10.825	     167.206	     -16.858	      44.150
	9.400000000	     -12.643	       8.103	     -10.711	     156.163	     -10.717	     156.158	     -17.475	      31.819
	9.600000000	     -13.057	       4.726	     -10.621	     145.226	     -10.630	     145.234	     -17.879	      17.616
	9.800000000	     -13.476	       2.009	     -10.549	     134.456	     -10.558	     134.469	     -17.952	       3.691
	10.000000000	     -13.805	      -0.346	     -10.490	     123.817	     -10.498	     123.834	     -17.908	     -10.211
	10.200000000	     -14.051	      -2.175	     -10.447	     113.317	     -10.454	     113.327	     -17.551	     -22.866
	10.400000000	     -14.277	      -3.774	     -10.408	     102.924	     -10.416	     102.926	     -17.157	     -33.879
	10.600000000	     -14.354	      -5.138	     -10.387	      92.656	     -10.393	      92.661	     -16.659	     -44.602
	10.800000000	     -14.368	      -6.188	     -10.369	      82.499	     -10.383	      82.542	     -16.199	     -53.500
	11.000000000	     -14.306	      -6.855	     -10.358	      72.460	     -10.372	      72.507	     -15.930	     -61.716
	11.200000000	     -14.221	      -7.701	     -10.348	      62.496	     -10.363	      62.536	     -15.712	     -69.356
	11.400000000	     -14.075	      -8.204	     -10.345	      52.596	     -10.360	      52.636	     -15.630	     -76.494
	11.600000000	     -13.856	      -8.350	     -10.345	      42.773	     -10.360	      42.814	     -15.712	     -83.276
	11.800000000	     -13.668	      -8.219	     -10.350	      33.003	     -10.365	      33.037	     -15.917	     -89.741
	12.000000000	     -13.406	      -8.253	     -10.357	      23.289	     -10.372	      23.330	     -16.385	     -96.169
	12.200000000	     -13.089	      -7.487	     -10.368	      13.629	     -10.377	      13.638	     -16.971	    -102.580
	12.400000000	     -12.797	      -6.888	     -10.386	       4.015	     -10.396	       4.023	     -17.870	    -108.449
	12.600000000	     -12.433	      -5.987	     -10.413	      -5.527	     -10.421	      -5.515	     -19.025	    -115.817
	12.800000000	     -12.077	      -4.998	     -10.442	     -14.975	     -10.450	     -14.966	     -20.439	    -122.711
	13.000000000	     -11.679	      -4.554	     -10.473	     -24.350	     -10.484	     -24.340	     -22.324	    -130.629
	13.200000000	     -11.238	      -4.196	     -10.512	     -33.624	     -10.521	     -33.616	     -24.645	    -139.653
	13.400000000	     -10.840	      -4.148	     -10.548	     -42.829	     -10.558	     -42.826	     -27.545	    -150.467
	13.600000000	     -10.479	      -4.566	     -10.585	     -51.941	     -10.595	     -51.948	     -31.846	    -167.803
	13.800000000	     -10.113	      -4.996	     -10.625	     -60.978	     -10.634	     -60.976	     -36.211	     152.306
	14.000000000	      -9.818	      -5.910	     -10.658	     -69.963	     -10.669	     -69.965	     -35.896	      94.781
	14.200000000	      -9.533	      -6.891	     -10.692	     -78.875	     -10.703	     -78.876	     -32.272	      67.660
	14.400000000	      -9.293	      -8.072	     -10.724	     -87.758	     -10.735	     -87.764	     -30.102	      51.132
	14.600000000	      -9.109	      -9.583	     -10.755	     -96.568	     -10.767	     -96.575	     -28.052	      43.354
	14.800000000	      -8.950	     -11.356	     -10.785	    -105.338	     -10.796	    -105.346	     -26.482	      38.386
	15.000000000	      -8.897	     -13.090	     -10.809	    -114.052	     -10.820	    -114.064	     -25.832	      34.875
	15.200000000	      -8.876	     -15.349	     -10.827	    -122.763	     -10.837	    -122.774	     -25.240	      32.891
	15.400000000	      -8.924	     -17.706	     -10.840	    -131.447	     -10.849	    -131.449	     -24.903	      33.875
	15.600000000	      -9.003	     -20.377	     -10.846	    -140.184	     -10.862	    -140.155	     -24.372	      35.453
	15.800000000	      -9.133	     -23.459	     -10.854	    -148.862	     -10.870	    -148.829	     -23.852	      38.749
	16.000000000	      -9.324	     -26.852	     -10.861	    -157.534	     -10.877	    -157.509	     -23.137	      41.394
	16.200000000	      -9.483	     -30.432	     -10.866	    -166.199	     -10.878	    -166.198	     -22.410	      44.196
	16.400000000	      -9.704	     -34.421	     -10.864	    -174.900	     -10.876	    -174.901	     -21.681	      46.270
	16.600000000	      -9.934	     -38.494	     -10.863	     176.396	     -10.874	     176.389	     -20.978	      48.656
	16.800000000	     -10.066	     -42.711	     -10.863	     167.659	     -10.874	     167.646	     -20.331	      50.089
	17.000000000	     -10.217	     -46.975	     -10.867	     158.863	     -10.878	     158.853	     -19.516	      49.545
	17.200000000	     -10.309	     -51.350	     -10.881	     150.049	     -10.892	     150.036	     -18.915	      46.572
	17.400000000	     -10.358	     -56.172	     -10.910	     141.282	     -10.922	     141.289	     -18.509	      45.919
	17.600000000	     -10.352	     -60.329	     -10.925	     132.606	     -10.939	     132.619	     -18.092	      43.829
	17.800000000	     -10.337	     -64.995	     -10.947	     123.861	     -10.961	     123.884	     -17.704	      41.573
	18.000000000	     -10.290	     -68.843	     -10.977	     115.173	     -10.992	     115.187	     -17.238	      39.120
	18.200000000	     -10.248	     -72.940	     -11.007	     106.519	     -11.020	     106.533	     -17.014	      36.256
	18.400000000	     -10.171	     -76.629	     -11.042	      97.913	     -11.055	      97.933	     -16.667	      33.026
	18.600000000	     -10.129	     -79.971	     -11.070	      89.353	     -11.083	      89.370	     -16.511	      29.603
	18.800000000	     -10.144	     -82.994	     -11.098	      80.850	     -11.112	      80.866	     -16.258	      25.892
	19.000000000	     -10.171	     -85.843	     -11.119	      72.353	     -11.133	      72.374	     -16.267	      22.151
	19.200000000	     -10.252	     -88.296	     -11.137	      63.981	     -11.139	      63.921	     -16.251	      17.424
	19.400000000	     -10.245	     -90.484	     -11.139	      55.604	     -11.140	      55.548	     -16.441	      13.359
	19.600000000	     -10.294	     -94.179	     -11.068	      47.073	     -11.071	      47.022	     -16.617	      10.516
	19.800000000	     -10.882	     -95.586	     -11.112	      38.043	     -11.117	      37.994	     -16.845	       7.117
	20.000000000	     -11.103	     -95.893	     -11.141	      29.614	     -11.144	      29.565	     -17.108	       2.502
	20.200000000	     -11.285	     -96.997	     -11.133	      21.143	     -11.137	      21.094	     -17.816	       0.207
	20.400000000	     -11.495	     -98.308	     -11.101	      12.519	     -11.105	      12.470	     -18.497	      -1.142
	20.600000000	     -11.857	    -102.072	     -11.090	       3.537	     -11.091	       3.479	     -19.121	      -1.831
	20.800000000	     -12.621	    -103.867	     -11.125	      -5.336	     -11.127	      -5.398	     -19.786	      -2.904
	21.000000000	     -13.280	    -104.611	     -11.149	     -14.085	     -11.151	     -14.152	     -20.968	      -2.890
	21.200000000	     -14.004	    -105.255	     -11.162	     -22.897	     -11.164	     -22.956	     -21.900	       0.420
	21.400000000	     -14.787	    -105.623	     -11.179	     -31.758	     -11.182	     -31.819	     -23.357	       5.458
	21.600000000	     -15.463	    -106.346	     -11.201	     -40.724	     -11.204	     -40.780	     -24.289	      11.689
	21.800000000	     -16.094	    -106.683	     -11.234	     -49.736	     -11.238	     -49.788	     -25.263	      21.727
	22.000000000	     -16.733	    -107.281	     -11.278	     -58.768	     -11.281	     -58.815	     -25.231	      30.187
	22.200000000	     -17.121	    -107.131	     -11.325	     -67.809	     -11.330	     -67.859	     -25.228	      39.121
	22.400000000	     -17.379	    -108.942	     -11.381	     -76.907	     -11.384	     -76.951	     -24.652	      44.676
	22.600000000	     -17.549	    -110.849	     -11.441	     -86.044	     -11.443	     -86.083	     -24.378	      48.159
	22.800000000	     -17.548	    -113.734	     -11.506	     -95.293	     -11.509	     -95.333	     -23.842	      48.840
	23.000000000	     -17.279	    -117.532	     -11.601	    -104.693	     -11.604	    -104.735	     -23.505	      50.285
	23.200000000	     -17.026	    -120.231	     -11.731	    -114.041	     -11.735	    -114.072	     -22.437	      47.728
	23.400000000	     -16.564	    -124.917	     -11.894	    -123.464	     -11.898	    -123.496	     -21.751	      46.040
	23.600000000	     -16.294	    -128.646	     -12.155	    -132.649	     -12.159	    -132.674	     -20.684	      42.384
	23.800000000	     -15.647	    -127.205	     -12.409	    -140.400	     -12.416	    -140.414	     -20.027	      33.737
	24.000000000	     -14.421	    -129.108	     -12.386	    -148.243	     -12.392	    -148.268	     -19.210	      26.657
	24.200000000	     -13.285	    -134.011	     -12.366	    -157.474	     -12.378	    -157.443	     -19.297	      20.523
	24.400000000	     -12.328	    -139.193	     -12.429	    -166.871	     -12.444	    -166.831	     -18.627	      17.541
	24.600000000	     -11.550	    -144.820	     -12.531	    -176.334	     -12.545	    -176.288	     -18.167	      15.365
	24.800000000	     -10.732	    -149.309	     -12.667	     174.193	     -12.680	     174.225	     -17.545	      12.310
	25.000000000	     -10.098	    -155.144	     -12.827	     164.709	     -12.840	     164.745	     -17.034	       9.288