!File name = SN03_25C_5V_Phase28.s2p
!Date = 2/3/2014
!Time = 2:36 PM
!Test duration(min) = 0.07
!Test = SPars
!MPTS version = 7.120.8
!Comments = 
!set_LD1(binary) = 28
!set_LD2(binary) = 524259
!test = SPars
!date_code = 20140203
!file_name = SN03_25C_5V_Phase28.s2p
!VREF(V) = 5.000
!VREF(mA) = 0.002
# GHz   S   DB   R   50
!%	Freq(GHz)	     S11(dB)	    S11(deg)	     S21(dB)	    S21(deg)	     S12(dB)	    S12(deg)	     S22(dB)	    S22(deg)
	5.000000000	      -3.564	     175.271	     -34.344	      67.261	     -34.346	      67.229	      -5.241	    -122.452
	5.200000000	      -3.890	     165.107	     -33.193	      55.277	     -33.211	      55.221	      -5.735	    -126.622
	5.400000000	      -4.227	     154.770	     -32.132	      43.433	     -32.146	      43.426	      -6.266	    -130.850
	5.600000000	      -4.569	     144.360	     -31.207	      31.239	     -31.213	      31.157	      -6.860	    -135.396
	5.800000000	      -4.922	     133.961	     -30.307	      18.839	     -30.315	      18.820	      -7.467	    -140.071
	6.000000000	      -5.281	     123.734	     -29.511	       5.936	     -29.523	       5.994	      -8.103	    -144.940
	6.200000000	      -5.648	     113.720	     -28.854	      -6.887	     -28.870	      -6.870	      -8.751	    -150.195
	6.400000000	      -6.039	     104.051	     -28.302	     -19.544	     -28.313	     -19.592	      -9.393	    -155.656
	6.600000000	      -6.436	      94.775	     -27.793	     -32.093	     -27.811	     -32.082	     -10.040	    -161.224
	6.800000000	      -6.858	      85.800	     -27.350	     -44.781	     -27.375	     -44.586	     -10.633	    -167.186
	7.000000000	      -7.289	      77.343	     -26.974	     -57.085	     -27.002	     -56.916	     -11.201	    -173.180
	7.200000000	      -7.738	      69.277	     -26.656	     -69.265	     -26.685	     -69.081	     -11.752	    -179.474
	7.400000000	      -8.222	      61.712	     -26.387	     -81.231	     -26.415	     -81.109	     -12.228	     174.353
	7.600000000	      -8.687	      54.490	     -26.146	     -93.087	     -26.184	     -92.903	     -12.672	     168.069
	7.800000000	      -9.221	      47.916	     -25.952	    -104.743	     -25.985	    -104.551	     -13.093	     161.930
	8.000000000	      -9.730	      41.563	     -25.788	    -116.195	     -25.821	    -116.021	     -13.456	     155.806
	8.200000000	     -10.276	      35.639	     -25.646	    -127.504	     -25.665	    -127.341	     -13.848	     150.031
	8.400000000	     -10.841	      30.132	     -25.525	    -138.673	     -25.552	    -138.504	     -14.224	     144.797
	8.600000000	     -11.437	      25.035	     -25.416	    -149.725	     -25.441	    -149.543	     -14.668	     139.605
	8.800000000	     -12.039	      20.264	     -25.340	    -160.664	     -25.365	    -160.475	     -15.149	     134.540
	9.000000000	     -12.657	      16.009	     -25.276	    -171.416	     -25.303	    -171.265	     -15.717	     129.539
	9.200000000	     -13.270	      12.085	     -25.230	     177.914	     -25.252	     178.052	     -16.331	     124.358
	9.400000000	     -13.883	       9.029	     -25.194	     167.385	     -25.216	     167.556	     -16.996	     118.579
	9.600000000	     -14.416	       6.376	     -25.165	     156.900	     -25.189	     157.078	     -17.854	     112.333
	9.800000000	     -14.950	       4.679	     -25.151	     146.497	     -25.176	     146.672	     -18.708	     104.629
	10.000000000	     -15.368	       3.633	     -25.150	     136.188	     -25.176	     136.333	     -19.599	      96.923
	10.200000000	     -15.657	       3.386	     -25.159	     125.916	     -25.183	     126.069	     -20.500	      86.805
	10.400000000	     -15.879	       3.643	     -25.187	     115.712	     -25.208	     115.864	     -21.161	      75.372
	10.600000000	     -15.874	       4.078	     -25.220	     105.589	     -25.247	     105.745	     -21.869	      62.191
	10.800000000	     -15.730	       4.885	     -25.289	      95.631	     -25.301	      95.619	     -22.136	      47.809
	11.000000000	     -15.415	       5.894	     -25.361	      85.697	     -25.371	      85.688	     -21.971	      34.978
	11.200000000	     -15.028	       6.361	     -25.421	      75.786	     -25.436	      75.772	     -21.601	      22.822
	11.400000000	     -14.523	       6.676	     -25.498	      65.924	     -25.512	      65.914	     -20.990	      12.429
	11.600000000	     -13.908	       6.692	     -25.580	      56.082	     -25.594	      56.108	     -20.352	       4.089
	11.800000000	     -13.318	       6.525	     -25.684	      46.319	     -25.695	      46.350	     -19.685	      -3.037
	12.000000000	     -12.691	       5.540	     -25.778	      36.748	     -25.789	      36.727	     -19.123	      -8.124
	12.200000000	     -12.040	       4.783	     -25.872	      27.169	     -25.868	      27.056	     -18.616	     -13.046
	12.400000000	     -11.479	       3.556	     -25.978	      17.710	     -25.974	      17.592	     -18.119	     -16.408
	12.600000000	     -10.927	       2.300	     -26.089	       8.432	     -26.085	       8.322	     -17.908	     -19.445
	12.800000000	     -10.453	       1.046	     -26.178	      -0.631	     -26.174	      -0.766	     -17.677	     -22.226
	13.000000000	     -10.026	      -0.623	     -26.260	      -9.661	     -26.257	      -9.781	     -17.546	     -24.313
	13.200000000	      -9.616	      -2.226	     -26.320	     -18.543	     -26.315	     -18.650	     -17.478	     -26.552
	13.400000000	      -9.286	      -3.877	     -26.377	     -27.388	     -26.374	     -27.558	     -17.455	     -28.807
	13.600000000	      -9.016	      -5.739	     -26.414	     -36.146	     -26.414	     -36.279	     -17.440	     -30.488
	13.800000000	      -8.767	      -7.396	     -26.457	     -44.796	     -26.452	     -44.938	     -17.584	     -32.209
	14.000000000	      -8.590	      -9.309	     -26.472	     -53.396	     -26.472	     -53.532	     -17.702	     -33.960
	14.200000000	      -8.433	     -11.105	     -26.480	     -61.938	     -26.475	     -62.050	     -17.981	     -35.812
	14.400000000	      -8.320	     -12.963	     -26.481	     -70.443	     -26.477	     -70.563	     -18.152	     -38.137
	14.600000000	      -8.260	     -14.986	     -26.470	     -78.855	     -26.467	     -78.975	     -18.468	     -39.167
	14.800000000	      -8.221	     -17.160	     -26.453	     -87.226	     -26.448	     -87.373	     -18.789	     -39.540
	15.000000000	      -8.278	     -19.286	     -26.422	     -95.577	     -26.417	     -95.693	     -19.141	     -41.067
	15.200000000	      -8.357	     -21.866	     -26.387	    -103.883	     -26.385	    -103.993	     -19.472	     -42.052
	15.400000000	      -8.502	     -24.580	     -26.348	    -112.137	     -26.345	    -112.266	     -19.964	     -43.116
	15.600000000	      -8.676	     -27.574	     -26.295	    -120.490	     -26.303	    -120.480	     -20.416	     -43.458
	15.800000000	      -8.898	     -31.029	     -26.240	    -128.599	     -26.246	    -128.622	     -21.025	     -43.871
	16.000000000	      -9.178	     -34.813	     -26.171	    -136.733	     -26.187	    -136.749	     -21.606	     -43.550
	16.200000000	      -9.431	     -38.758	     -26.088	    -144.740	     -26.098	    -144.740	     -22.320	     -43.166
	16.400000000	      -9.750	     -43.150	     -25.968	    -152.944	     -25.990	    -152.946	     -23.103	     -42.893
	16.600000000	     -10.087	     -47.651	     -25.832	    -161.251	     -25.841	    -161.240	     -24.182	     -42.626
	16.800000000	     -10.331	     -52.178	     -25.682	    -169.991	     -25.694	    -169.972	     -25.349	     -42.966
	17.000000000	     -10.608	     -56.809	     -25.604	    -179.210	     -25.612	    -179.181	     -26.447	     -41.175
	17.200000000	     -10.841	     -61.463	     -25.634	     171.678	     -25.647	     171.718	     -27.146	     -41.227
	17.400000000	     -11.047	     -66.426	     -25.715	     163.310	     -25.727	     163.364	     -29.344	     -42.775
	17.600000000	     -11.212	     -70.444	     -25.696	     155.260	     -25.705	     155.272	     -31.595	     -42.219
	17.800000000	     -11.357	     -74.951	     -25.689	     146.984	     -25.699	     146.956	     -34.904	     -38.054
	18.000000000	     -11.497	     -78.323	     -25.690	     138.697	     -25.697	     138.748	     -39.125	     -14.944
	18.200000000	     -11.629	     -81.810	     -25.681	     130.565	     -25.700	     130.587	     -43.274	      34.308
	18.400000000	     -11.719	     -84.560	     -25.678	     122.442	     -25.686	     122.449	     -37.983	      73.122
	18.600000000	     -11.836	     -86.780	     -25.653	     114.346	     -25.669	     114.359	     -34.176	      89.182
	18.800000000	     -12.011	     -88.426	     -25.632	     106.283	     -25.646	     106.245	     -30.916	      90.281
	19.000000000	     -12.166	     -89.719	     -25.604	      98.150	     -25.621	      98.203	     -28.682	      94.568
	19.200000000	     -12.369	     -90.391	     -25.563	      90.014	     -25.581	      90.083	     -27.222	      93.128
	19.400000000	     -12.444	     -90.448	     -25.517	      81.946	     -25.529	      82.059	     -25.738	      94.197
	19.600000000	     -12.507	     -91.986	     -25.420	      73.608	     -25.436	      73.721	     -23.863	      95.666
	19.800000000	     -13.112	     -90.962	     -25.450	      65.016	     -25.471	      65.091	     -21.976	      92.059
	20.000000000	     -13.287	     -88.698	     -25.445	      56.989	     -25.467	      57.094	     -21.220	      85.344
	20.200000000	     -13.332	     -87.207	     -25.420	      48.852	     -25.430	      48.905	     -20.277	      84.315
	20.400000000	     -13.332	     -85.891	     -25.373	      40.529	     -25.385	      40.648	     -19.413	      81.782
	20.600000000	     -13.459	     -87.573	     -25.343	      31.924	     -25.364	      31.976	     -18.669	      79.387
	20.800000000	     -13.932	     -86.793	     -25.394	      23.394	     -25.404	      23.469	     -18.008	      76.202
	21.000000000	     -14.172	     -85.430	     -25.440	      15.180	     -25.456	      15.241	     -17.514	      74.720
	21.200000000	     -14.415	     -84.208	     -25.474	       7.013	     -25.494	       7.093	     -16.888	      72.245
	21.400000000	     -14.631	     -83.192	     -25.493	      -1.100	     -25.518	      -0.965	     -16.473	      71.474
	21.600000000	     -14.742	     -83.409	     -25.522	      -9.287	     -25.539	      -9.173	     -16.078	      69.085
	21.800000000	     -14.785	     -84.032	     -25.554	     -17.445	     -25.577	     -17.407	     -15.747	      67.860
	22.000000000	     -14.851	     -85.448	     -25.588	     -25.644	     -25.602	     -25.524	     -15.393	      64.946
	22.200000000	     -14.731	     -87.199	     -25.614	     -33.880	     -25.637	     -33.829	     -15.183	      62.840
	22.400000000	     -14.622	     -91.000	     -25.653	     -42.404	     -25.673	     -42.316	     -14.948	      59.807
	22.600000000	     -14.494	     -95.073	     -25.736	     -51.016	     -25.750	     -50.934	     -14.906	      56.776
	22.800000000	     -14.298	    -100.144	     -25.869	     -59.842	     -25.882	     -59.713	     -14.800	      53.005
	23.000000000	     -13.957	    -106.071	     -26.123	     -68.478	     -26.146	     -68.404	     -14.786	      49.545
	23.200000000	     -13.620	    -111.240	     -26.389	     -76.458	     -26.408	     -76.347	     -14.550	      44.929
	23.400000000	     -13.169	    -117.856	     -26.771	     -84.539	     -26.788	     -84.439	     -14.458	      40.815
	23.600000000	     -12.842	    -123.996	     -27.395	     -90.549	     -27.410	     -90.419	     -14.226	      36.530
	23.800000000	     -12.348	    -126.952	     -27.487	     -91.917	     -27.510	     -91.854	     -14.065	      30.601
	24.000000000	     -11.584	    -131.349	     -26.746	     -98.065	     -26.768	     -97.986	     -13.644	      25.150
	24.200000000	     -10.809	    -137.157	     -26.477	    -107.726	     -26.485	    -107.714	     -13.681	      19.273
	24.400000000	     -10.130	    -143.059	     -26.492	    -116.950	     -26.496	    -116.956	     -13.364	      15.024
	24.600000000	      -9.569	    -149.278	     -26.571	    -125.753	     -26.580	    -125.738	     -13.176	      11.561
	24.800000000	      -8.982	    -154.460	     -26.687	    -134.266	     -26.692	    -134.216	     -12.846	       7.690
	25.000000000	      -8.527	    -160.696	     -26.813	    -142.561	     -26.825	    -142.546	     -12.583	       3.888