!File name = SN03_25C_5V_Phase18.s2p
!Date = 2/3/2014
!Time = 2:35 PM
!Test duration(min) = 0.07
!Test = SPars
!MPTS version = 7.120.8
!Comments = 
!set_LD1(binary) = 18
!set_LD2(binary) = 524269
!test = SPars
!date_code = 20140203
!file_name = SN03_25C_5V_Phase18.s2p
!VREF(V) = 5.000
!VREF(mA) = 0.002
# GHz   S   DB   R   50
!%	Freq(GHz)	     S11(dB)	    S11(deg)	     S21(dB)	    S21(deg)	     S12(dB)	    S12(deg)	     S22(dB)	    S22(deg)
	5.000000000	      -4.224	     170.944	     -30.683	      82.074	     -30.698	      82.028	      -5.235	    -122.711
	5.200000000	      -4.458	     159.298	     -29.168	      70.916	     -29.175	      70.923	      -5.737	    -126.967
	5.400000000	      -4.706	     147.137	     -27.688	      59.468	     -27.705	      59.416	      -6.281	    -131.289
	5.600000000	      -4.974	     134.552	     -26.304	      47.308	     -26.320	      47.295	      -6.899	    -135.921
	5.800000000	      -5.284	     121.608	     -24.974	      34.563	     -24.994	      34.555	      -7.538	    -140.653
	6.000000000	      -5.657	     108.512	     -23.748	      21.164	     -23.769	      21.144	      -8.215	    -145.528
	6.200000000	      -6.116	      95.360	     -22.648	       7.330	     -22.661	       7.316	      -8.913	    -150.709
	6.400000000	      -6.712	      82.310	     -21.651	      -6.813	     -21.666	      -6.809	      -9.607	    -155.972
	6.600000000	      -7.461	      69.596	     -20.761	     -21.240	     -20.776	     -21.233	     -10.304	    -161.205
	6.800000000	      -8.400	      57.315	     -19.985	     -36.021	     -20.014	     -35.902	     -10.933	    -166.700
	7.000000000	      -9.568	      46.005	     -19.350	     -50.709	     -19.377	     -50.601	     -11.516	    -172.121
	7.200000000	     -10.976	      35.980	     -18.838	     -65.354	     -18.864	     -65.253	     -12.056	    -177.812
	7.400000000	     -12.684	      27.881	     -18.443	     -79.803	     -18.469	     -79.693	     -12.489	     176.587
	7.600000000	     -14.597	      22.889	     -18.152	     -93.949	     -18.178	     -93.838	     -12.868	     170.779
	7.800000000	     -16.772	      22.398	     -17.947	    -107.693	     -17.977	    -107.586	     -13.209	     164.943
	8.000000000	     -18.642	      27.937	     -17.819	    -121.029	     -17.847	    -120.913	     -13.485	     158.971
	8.200000000	     -19.702	      38.962	     -17.742	    -133.882	     -17.765	    -133.790	     -13.792	     153.200
	8.400000000	     -19.459	      49.848	     -17.706	    -146.313	     -17.730	    -146.211	     -14.085	     147.842
	8.600000000	     -18.465	      55.932	     -17.692	    -158.334	     -17.714	    -158.240	     -14.456	     142.432
	8.800000000	     -17.322	      56.936	     -17.700	    -170.015	     -17.720	    -169.917	     -14.873	     137.089
	9.000000000	     -16.307	      54.829	     -17.718	     178.652	     -17.739	     178.746	     -15.386	     131.770
	9.200000000	     -15.486	      50.665	     -17.738	     167.591	     -17.759	     167.686	     -15.959	     126.249
	9.400000000	     -14.816	      45.809	     -17.765	     156.765	     -17.784	     156.884	     -16.592	     120.142
	9.600000000	     -14.261	      39.962	     -17.787	     146.153	     -17.807	     146.265	     -17.420	     113.591
	9.800000000	     -13.842	      34.295	     -17.804	     135.699	     -17.830	     135.822	     -18.258	     105.638
	10.000000000	     -13.482	      28.328	     -17.828	     125.413	     -17.853	     125.547	     -19.141	      97.684
	10.200000000	     -13.183	      22.516	     -17.853	     115.229	     -17.875	     115.362	     -20.047	      87.475
	10.400000000	     -12.987	      16.885	     -17.872	     105.165	     -17.893	     105.276	     -20.729	      76.021
	10.600000000	     -12.798	      11.273	     -17.894	      95.187	     -17.915	      95.298	     -21.476	      62.909
	10.800000000	     -12.658	       6.162	     -17.923	      85.372	     -17.938	      85.389	     -21.806	      48.626
	11.000000000	     -12.543	       1.651	     -17.950	      75.583	     -17.965	      75.607	     -21.722	      35.794
	11.200000000	     -12.496	      -2.657	     -17.969	      65.836	     -17.984	      65.847	     -21.436	      23.575
	11.400000000	     -12.464	      -6.269	     -17.993	      56.142	     -18.006	      56.156	     -20.906	      13.099
	11.600000000	     -12.427	      -9.143	     -18.017	      46.481	     -18.028	      46.498	     -20.344	       4.652
	11.800000000	     -12.461	     -11.333	     -18.046	      36.867	     -18.058	      36.877	     -19.739	      -2.529
	12.000000000	     -12.465	     -13.194	     -18.070	      27.343	     -18.085	      27.347	     -19.226	      -7.556
	12.200000000	     -12.456	     -13.838	     -18.097	      17.836	     -18.100	      17.794	     -18.760	     -12.341
	12.400000000	     -12.485	     -14.172	     -18.125	       8.390	     -18.132	       8.339	     -18.284	     -15.464
	12.600000000	     -12.464	     -13.664	     -18.159	      -0.975	     -18.163	      -1.027	     -18.088	     -18.188
	12.800000000	     -12.445	     -12.537	     -18.187	     -10.237	     -18.194	     -10.297	     -17.849	     -20.562
	13.000000000	     -12.355	     -11.460	     -18.212	     -19.468	     -18.218	     -19.512	     -17.685	     -22.243
	13.200000000	     -12.175	      -9.956	     -18.238	     -28.616	     -18.241	     -28.670	     -17.570	     -24.079
	13.400000000	     -11.980	      -8.496	     -18.258	     -37.726	     -18.262	     -37.799	     -17.478	     -26.014
	13.600000000	     -11.763	      -7.353	     -18.281	     -46.796	     -18.283	     -46.864	     -17.374	     -27.478
	13.800000000	     -11.477	      -6.094	     -18.305	     -55.773	     -18.309	     -55.866	     -17.421	     -29.051
	14.000000000	     -11.216	      -5.388	     -18.326	     -64.732	     -18.328	     -64.804	     -17.431	     -30.865
	14.200000000	     -10.916	      -4.790	     -18.344	     -73.599	     -18.350	     -73.693	     -17.598	     -32.867
	14.400000000	     -10.626	      -4.515	     -18.367	     -82.475	     -18.370	     -82.557	     -17.668	     -35.528
	14.600000000	     -10.367	      -4.697	     -18.383	     -91.274	     -18.391	     -91.342	     -17.879	     -37.078
	14.800000000	     -10.110	      -5.300	     -18.406	     -99.998	     -18.410	    -100.067	     -18.106	     -38.170
	15.000000000	      -9.944	      -5.934	     -18.427	    -108.698	     -18.431	    -108.766	     -18.388	     -40.462
	15.200000000	      -9.800	      -7.261	     -18.443	    -117.351	     -18.448	    -117.418	     -18.674	     -42.329
	15.400000000	      -9.718	      -8.780	     -18.456	    -125.924	     -18.461	    -126.012	     -19.133	     -44.385
	15.600000000	      -9.657	     -10.748	     -18.462	    -134.589	     -18.472	    -134.584	     -19.595	     -45.792
	15.800000000	      -9.656	     -13.244	     -18.466	    -143.105	     -18.478	    -143.107	     -20.228	     -47.331
	16.000000000	      -9.711	     -16.092	     -18.469	    -151.616	     -18.482	    -151.605	     -20.876	     -48.164
	16.200000000	      -9.733	     -19.285	     -18.459	    -160.115	     -18.475	    -160.070	     -21.682	     -49.060
	16.400000000	      -9.833	     -22.872	     -18.444	    -168.646	     -18.462	    -168.599	     -22.604	     -50.129
	16.600000000	      -9.941	     -26.610	     -18.422	    -177.185	     -18.439	    -177.139	     -23.867	     -51.387
	16.800000000	      -9.960	     -30.709	     -18.399	     174.141	     -18.416	     174.189	     -25.288	     -53.317
	17.000000000	     -10.014	     -34.845	     -18.390	     165.348	     -18.407	     165.390	     -26.766	     -52.559
	17.200000000	     -10.021	     -39.143	     -18.413	     156.532	     -18.430	     156.562	     -27.810	     -52.675
	17.400000000	     -10.015	     -43.871	     -18.461	     147.890	     -18.481	     147.914	     -30.484	     -56.688
	17.600000000	      -9.929	     -47.997	     -18.484	     139.396	     -18.498	     139.432	     -33.536	     -58.428
	17.800000000	      -9.857	     -52.648	     -18.512	     130.760	     -18.528	     130.800	     -38.833	     -58.477
	18.000000000	      -9.733	     -56.566	     -18.548	     122.176	     -18.564	     122.213	     -49.722	       0.018
	18.200000000	      -9.618	     -60.707	     -18.588	     113.658	     -18.605	     113.697	     -41.799	      95.802
	18.400000000	      -9.464	     -64.527	     -18.634	     105.166	     -18.651	     105.206	     -35.120	      95.284
	18.600000000	      -9.325	     -68.020	     -18.676	      96.741	     -18.694	      96.769	     -31.691	      98.032
	18.800000000	      -9.233	     -71.173	     -18.719	      88.375	     -18.739	      88.409	     -29.034	      94.166
	19.000000000	      -9.138	     -74.209	     -18.758	      80.045	     -18.775	      80.093	     -27.176	      94.921
	19.200000000	      -9.083	     -76.865	     -18.788	      71.813	     -18.802	      71.825	     -25.984	      92.082
	19.400000000	      -8.933	     -79.437	     -18.805	      63.555	     -18.815	      63.598	     -24.782	      91.853
	19.600000000	      -8.857	     -83.283	     -18.766	      55.102	     -18.782	      55.132	     -23.204	      92.700
	19.800000000	      -9.195	     -85.004	     -18.847	      46.375	     -18.862	      46.421	     -21.535	      89.180
	20.000000000	      -9.179	     -86.020	     -18.893	      38.240	     -18.907	      38.286	     -20.892	      82.592
	20.200000000	      -9.142	     -87.973	     -18.907	      30.019	     -18.921	      30.072	     -20.075	      81.670
	20.400000000	      -9.102	     -90.351	     -18.895	      21.680	     -18.907	      21.706	     -19.308	      79.346
	20.600000000	      -9.234	     -95.043	     -18.900	      12.963	     -18.914	      13.002	     -18.628	      77.170
	20.800000000	      -9.677	     -98.118	     -18.962	       4.385	     -18.974	       4.409	     -18.018	      74.193
	21.000000000	     -10.022	    -100.719	     -19.007	      -4.022	     -19.020	      -4.000	     -17.575	      72.975
	21.200000000	     -10.431	    -103.587	     -19.042	     -12.457	     -19.051	     -12.429	     -16.974	      70.768
	21.400000000	     -10.889	    -106.759	     -19.070	     -20.929	     -19.083	     -20.913	     -16.585	      70.237
	21.600000000	     -11.322	    -110.542	     -19.103	     -29.510	     -19.116	     -29.483	     -16.202	      68.060
	21.800000000	     -11.770	    -114.389	     -19.143	     -38.116	     -19.158	     -38.067	     -15.884	      67.027
	22.000000000	     -12.262	    -118.726	     -19.190	     -46.758	     -19.204	     -46.718	     -15.537	      64.263
	22.200000000	     -12.688	    -122.585	     -19.232	     -55.419	     -19.248	     -55.382	     -15.332	      62.274
	22.400000000	     -13.027	    -127.593	     -19.282	     -64.234	     -19.296	     -64.210	     -15.100	      59.377
	22.600000000	     -13.354	    -132.583	     -19.344	     -73.144	     -19.359	     -73.086	     -15.058	      56.411
	22.800000000	     -13.584	    -137.799	     -19.429	     -82.248	     -19.443	     -82.208	     -14.956	      52.750
	23.000000000	     -13.639	    -142.956	     -19.577	     -91.497	     -19.592	     -91.455	     -14.942	      49.393
	23.200000000	     -13.768	    -147.336	     -19.767	    -100.435	     -19.781	    -100.388	     -14.695	      44.892
	23.400000000	     -13.671	    -152.113	     -20.007	    -109.523	     -20.021	    -109.471	     -14.593	      40.904
	23.600000000	     -13.720	    -156.653	     -20.412	    -117.936	     -20.427	    -117.863	     -14.336	      36.681
	23.800000000	     -13.789	    -156.639	     -20.711	    -123.651	     -20.730	    -123.583	     -14.154	      30.641
	24.000000000	     -13.306	    -157.170	     -20.489	    -130.362	     -20.504	    -130.296	     -13.736	      25.052
	24.200000000	     -12.638	    -159.527	     -20.370	    -139.480	     -20.384	    -139.450	     -13.790	      19.157
	24.400000000	     -12.028	    -162.367	     -20.414	    -148.770	     -20.429	    -148.735	     -13.476	      14.974
	24.600000000	     -11.496	    -166.017	     -20.505	    -157.915	     -20.520	    -157.895	     -13.289	      11.551
	24.800000000	     -10.935	    -168.422	     -20.630	    -167.053	     -20.645	    -167.027	     -12.957	       7.718
	25.000000000	     -10.447	    -172.556	     -20.783	    -176.138	     -20.798	    -176.103	     -12.691	       3.940