!File name = SN03_25C_5V_Phase15.s2p
!Date = 2/3/2014
!Time = 2:35 PM
!Test duration(min) = 0.07
!Test = SPars
!MPTS version = 7.120.8
!Comments = 
!set_LD1(binary) = 15
!set_LD2(binary) = 524272
!test = SPars
!date_code = 20140203
!file_name = SN03_25C_5V_Phase15.s2p
!VREF(V) = 5.000
!VREF(mA) = 0.003
# GHz   S   DB   R   50
!%	Freq(GHz)	     S11(dB)	    S11(deg)	     S21(dB)	    S21(deg)	     S12(dB)	    S12(deg)	     S22(dB)	    S22(deg)
	5.000000000	      -8.322	     160.720	     -28.046	      75.179	     -28.056	      75.196	      -1.918	    -131.365
	5.200000000	      -8.489	     149.610	     -26.610	      62.976	     -26.621	      62.996	      -2.274	    -138.425
	5.400000000	      -8.614	     138.390	     -25.250	      50.468	     -25.259	      50.482	      -2.696	    -145.873
	5.600000000	      -8.696	     127.226	     -24.014	      37.434	     -24.026	      37.422	      -3.205	    -153.947
	5.800000000	      -8.760	     116.228	     -22.860	      24.051	     -22.866	      24.041	      -3.774	    -162.404
	6.000000000	      -8.817	     105.665	     -21.833	      10.242	     -21.844	      10.250	      -4.412	    -171.257
	6.200000000	      -8.871	      95.533	     -20.939	      -3.659	     -20.952	      -3.679	      -5.103	     179.461
	6.400000000	      -8.963	      85.891	     -20.163	     -17.550	     -20.175	     -17.557	      -5.826	     170.031
	6.600000000	      -9.075	      76.833	     -19.478	     -31.354	     -19.489	     -31.344	      -6.586	     160.485
	6.800000000	      -9.220	      68.144	     -18.876	     -45.147	     -18.901	     -45.013	      -7.328	     150.906
	7.000000000	      -9.394	      60.063	     -18.375	     -58.580	     -18.398	     -58.468	      -8.077	     141.464
	7.200000000	      -9.592	      52.397	     -17.939	     -71.776	     -17.965	     -71.680	      -8.803	     131.921
	7.400000000	      -9.844	      45.207	     -17.566	     -84.744	     -17.591	     -84.645	      -9.516	     122.821
	7.600000000	     -10.074	      38.426	     -17.244	     -97.473	     -17.269	     -97.352	     -10.209	     113.761
	7.800000000	     -10.388	      32.170	     -16.966	    -109.914	     -16.991	    -109.813	     -10.909	     104.936
	8.000000000	     -10.663	      26.150	     -16.725	    -122.145	     -16.752	    -122.038	     -11.592	      96.328
	8.200000000	     -10.977	      20.435	     -16.515	    -134.150	     -16.537	    -134.074	     -12.311	      87.652
	8.400000000	     -11.297	      15.044	     -16.330	    -145.969	     -16.352	    -145.887	     -13.098	      79.128
	8.600000000	     -11.640	       9.922	     -16.173	    -157.595	     -16.192	    -157.533	     -13.912	      69.896
	8.800000000	     -11.977	       4.975	     -16.040	    -169.094	     -16.057	    -169.026	     -14.756	      60.191
	9.000000000	     -12.323	       0.339	     -15.929	     179.584	     -15.946	     179.648	     -15.629	      49.292
	9.200000000	     -12.659	      -4.177	     -15.838	     168.410	     -15.854	     168.473	     -16.425	      37.447
	9.400000000	     -13.014	      -8.131	     -15.766	     157.405	     -15.783	     157.477	     -17.100	      24.634
	9.600000000	     -13.304	     -11.874	     -15.709	     146.511	     -15.729	     146.591	     -17.547	      10.227
	9.800000000	     -13.633	     -15.106	     -15.670	     135.785	     -15.688	     135.888	     -17.679	      -3.545
	10.000000000	     -13.903	     -17.930	     -15.642	     125.191	     -15.663	     125.294	     -17.709	     -17.131
	10.200000000	     -14.129	     -20.213	     -15.629	     114.757	     -15.647	     114.836	     -17.450	     -29.217
	10.400000000	     -14.370	     -22.293	     -15.619	     104.396	     -15.638	     104.476	     -17.170	     -39.559
	10.600000000	     -14.494	     -23.904	     -15.627	      94.201	     -15.645	      94.269	     -16.770	     -49.539
	10.800000000	     -14.596	     -25.003	     -15.644	      84.143	     -15.658	      84.176	     -16.413	     -57.639
	11.000000000	     -14.644	     -25.486	     -15.662	      74.160	     -15.675	      74.193	     -16.237	     -65.013
	11.200000000	     -14.662	     -26.013	     -15.679	      64.255	     -15.693	      64.281	     -16.090	     -71.744
	11.400000000	     -14.620	     -25.976	     -15.701	      54.427	     -15.716	      54.442	     -16.061	     -77.860
	11.600000000	     -14.503	     -25.394	     -15.727	      44.662	     -15.739	      44.687	     -16.174	     -83.528
	11.800000000	     -14.406	     -24.586	     -15.756	      34.965	     -15.769	      34.977	     -16.378	     -88.785
	12.000000000	     -14.200	     -23.926	     -15.787	      25.342	     -15.800	      25.355	     -16.808	     -93.877
	12.200000000	     -13.965	     -22.446	     -15.817	      15.773	     -15.823	      15.743	     -17.305	     -98.850
	12.400000000	     -13.745	     -21.330	     -15.852	       6.257	     -15.858	       6.235	     -18.046	    -103.159
	12.600000000	     -13.472	     -19.913	     -15.893	      -3.169	     -15.900	      -3.180	     -18.974	    -108.841
	12.800000000	     -13.233	     -18.434	     -15.930	     -12.485	     -15.938	     -12.511	     -20.037	    -114.032
	13.000000000	     -12.949	     -17.493	     -15.968	     -21.755	     -15.976	     -21.768	     -21.417	    -119.872
	13.200000000	     -12.631	     -16.446	     -16.006	     -30.899	     -16.013	     -30.921	     -22.984	    -126.507
	13.400000000	     -12.358	     -15.700	     -16.040	     -40.004	     -16.048	     -40.034	     -24.776	    -133.943
	13.600000000	     -12.119	     -15.408	     -16.072	     -49.015	     -16.079	     -49.060	     -27.193	    -143.501
	13.800000000	     -11.868	     -14.952	     -16.106	     -57.964	     -16.112	     -58.018	     -29.839	    -159.885
	14.000000000	     -11.683	     -15.054	     -16.130	     -66.873	     -16.136	     -66.930	     -32.523	     175.521
	14.200000000	     -11.499	     -15.103	     -16.152	     -75.712	     -16.159	     -75.771	     -32.976	     140.623
	14.400000000	     -11.354	     -15.322	     -16.170	     -84.561	     -16.179	     -84.604	     -32.046	     112.615
	14.600000000	     -11.259	     -15.897	     -16.189	     -93.342	     -16.198	     -93.375	     -29.499	      91.765
	14.800000000	     -11.174	     -16.707	     -16.208	    -102.092	     -16.217	    -102.130	     -27.104	      78.469
	15.000000000	     -11.207	     -17.492	     -16.224	    -110.791	     -16.230	    -110.831	     -25.556	      71.191
	15.200000000	     -11.261	     -18.845	     -16.234	    -119.490	     -16.242	    -119.531	     -24.167	      64.941
	15.400000000	     -11.395	     -20.312	     -16.244	    -128.157	     -16.250	    -128.195	     -23.011	      61.461
	15.600000000	     -11.553	     -22.108	     -16.248	    -136.877	     -16.260	    -136.866	     -21.903	      57.795
	15.800000000	     -11.769	     -24.438	     -16.258	    -145.503	     -16.272	    -145.505	     -20.965	      55.362
	16.000000000	     -12.058	     -27.098	     -16.266	    -154.101	     -16.279	    -154.085	     -20.104	      52.620
	16.200000000	     -12.305	     -29.947	     -16.261	    -162.680	     -16.278	    -162.640	     -19.382	      50.393
	16.400000000	     -12.646	     -33.323	     -16.251	    -171.287	     -16.268	    -171.252	     -18.777	      48.185
	16.600000000	     -13.007	     -36.753	     -16.236	    -179.909	     -16.253	    -179.871	     -18.294	      46.699
	16.800000000	     -13.232	     -40.393	     -16.220	     171.367	     -16.237	     171.385	     -17.935	      45.026
	17.000000000	     -13.501	     -44.089	     -16.223	     162.515	     -16.239	     162.550	     -17.488	      42.509
	17.200000000	     -13.706	     -47.919	     -16.250	     153.680	     -16.267	     153.725	     -17.193	      38.510
	17.400000000	     -13.873	     -52.292	     -16.296	     145.018	     -16.312	     145.060	     -17.084	      36.619
	17.600000000	     -13.935	     -55.594	     -16.312	     136.487	     -16.329	     136.529	     -16.955	      33.765
	17.800000000	     -13.994	     -59.661	     -16.333	     127.843	     -16.348	     127.876	     -16.861	      31.056
	18.000000000	     -13.977	     -62.354	     -16.360	     119.201	     -16.377	     119.249	     -16.688	      28.538
	18.200000000	     -13.952	     -65.358	     -16.384	     110.607	     -16.403	     110.664	     -16.725	      25.681
	18.400000000	     -13.832	     -67.745	     -16.415	     102.048	     -16.433	     102.104	     -16.631	      22.810
	18.600000000	     -13.715	     -69.547	     -16.439	      93.502	     -16.459	      93.544	     -16.699	      19.805
	18.800000000	     -13.640	     -70.806	     -16.469	      84.997	     -16.486	      85.029	     -16.651	      16.896
	19.000000000	     -13.530	     -71.838	     -16.491	      76.490	     -16.507	      76.539	     -16.836	      13.916
	19.200000000	     -13.443	     -72.306	     -16.515	      68.081	     -16.519	      68.061	     -16.943	      10.131
	19.400000000	     -13.198	     -72.503	     -16.520	      59.662	     -16.528	      59.659	     -17.254	       7.012
	19.600000000	     -13.007	     -74.629	     -16.466	      51.031	     -16.473	      51.040	     -17.552	       5.447
	19.800000000	     -13.315	     -73.465	     -16.532	      42.008	     -16.542	      42.019	     -17.836	       3.504
	20.000000000	     -13.160	     -71.625	     -16.582	      33.589	     -16.590	      33.595	     -18.060	       0.100
	20.200000000	     -12.905	     -71.047	     -16.597	      25.141	     -16.606	      25.144	     -18.757	      -1.024
	20.400000000	     -12.638	     -70.864	     -16.591	      16.567	     -16.599	      16.553	     -19.369	      -1.319
	20.600000000	     -12.594	     -73.548	     -16.601	       7.631	     -16.608	       7.629	     -19.908	      -1.261
	20.800000000	     -12.839	     -73.763	     -16.662	      -1.185	     -16.669	      -1.210	     -20.452	      -1.712
	21.000000000	     -12.895	     -73.807	     -16.719	      -9.866	     -16.728	      -9.867	     -21.512	      -1.489
	21.200000000	     -12.982	     -74.092	     -16.766	     -18.507	     -16.774	     -18.516	     -22.312	       1.574
	21.400000000	     -13.083	     -74.689	     -16.810	     -27.170	     -16.819	     -27.201	     -23.732	       5.954
	21.600000000	     -13.148	     -76.485	     -16.854	     -35.944	     -16.863	     -35.944	     -24.705	      11.307
	21.800000000	     -13.197	     -78.701	     -16.906	     -44.739	     -16.916	     -44.742	     -25.862	      20.868
	22.000000000	     -13.301	     -81.549	     -16.963	     -53.566	     -16.975	     -53.550	     -26.060	      29.743
	22.200000000	     -13.282	     -84.721	     -17.025	     -62.389	     -17.037	     -62.396	     -26.278	      40.015
	22.400000000	     -13.299	     -89.538	     -17.087	     -71.337	     -17.097	     -71.328	     -25.773	      47.293
	22.600000000	     -13.307	     -94.558	     -17.159	     -80.350	     -17.168	     -80.348	     -25.540	      52.692
	22.800000000	     -13.267	    -100.439	     -17.244	     -89.559	     -17.254	     -89.573	     -24.944	      54.721
	23.000000000	     -13.108	    -107.097	     -17.385	     -98.985	     -17.395	     -98.989	     -24.493	      57.708
	23.200000000	     -12.966	    -112.994	     -17.577	    -108.175	     -17.590	    -108.169	     -23.312	      55.318
	23.400000000	     -12.723	    -120.106	     -17.819	    -117.477	     -17.831	    -117.453	     -22.541	      54.102
	23.600000000	     -12.603	    -126.608	     -18.221	    -126.170	     -18.234	    -126.159	     -21.421	      50.647
	23.800000000	     -12.304	    -129.576	     -18.560	    -132.354	     -18.576	    -132.318	     -20.802	      42.922
	24.000000000	     -11.657	    -133.989	     -18.396	    -139.057	     -18.410	    -139.018	     -19.823	      36.370
	24.200000000	     -10.999	    -139.970	     -18.292	    -148.085	     -18.305	    -148.051	     -19.756	      31.081
	24.400000000	     -10.433	    -145.983	     -18.333	    -157.404	     -18.345	    -157.364	     -18.876	      27.895
	24.600000000	      -9.985	    -152.298	     -18.422	    -166.646	     -18.438	    -166.619	     -18.200	      25.752
	24.800000000	      -9.508	    -157.400	     -18.551	    -175.828	     -18.564	    -175.795	     -17.377	      22.397
	25.000000000	      -9.151	    -163.619	     -18.705	     174.999	     -18.720	     175.025	     -16.682	      18.920