!File name = SN03_25C_5V_Phase31.s2p
!Date = 2/3/2014
!Time = 2:36 PM
!Test duration(min) = 0.07
!Test = SPars
!MPTS version = 7.120.8
!Comments = 
!set_LD1(binary) = 31
!set_LD2(binary) = 524256
!test = SPars
!date_code = 20140203
!file_name = SN03_25C_5V_Phase31.s2p
!VREF(V) = 5.000
!VREF(mA) = 0.003
# GHz   S   DB   R   50
!%	Freq(GHz)	     S11(dB)	    S11(deg)	     S21(dB)	    S21(deg)	     S12(dB)	    S12(deg)	     S22(dB)	    S22(deg)
	5.000000000	      -8.330	     160.908	     -36.358	      67.788	     -36.368	      67.837	      -5.242	    -122.446
	5.200000000	      -8.493	     149.837	     -35.206	      56.310	     -35.220	      56.288	      -5.735	    -126.617
	5.400000000	      -8.614	     138.658	     -34.140	      44.907	     -34.156	      44.921	      -6.266	    -130.839
	5.600000000	      -8.689	     127.536	     -33.211	      32.931	     -33.222	      32.927	      -6.861	    -135.382
	5.800000000	      -8.742	     116.573	     -32.296	      20.854	     -32.316	      20.874	      -7.468	    -140.058
	6.000000000	      -8.787	     106.026	     -31.505	       8.263	     -31.505	       8.244	      -8.102	    -144.919
	6.200000000	      -8.829	      95.894	     -30.826	      -4.569	     -30.840	      -4.515	      -8.751	    -150.171
	6.400000000	      -8.907	      86.218	     -30.265	     -17.271	     -30.283	     -17.283	      -9.390	    -155.627
	6.600000000	      -9.011	      77.110	     -29.764	     -29.810	     -29.777	     -29.792	     -10.036	    -161.199
	6.800000000	      -9.142	      68.356	     -29.315	     -42.607	     -29.353	     -42.410	     -10.628	    -167.160
	7.000000000	      -9.308	      60.182	     -28.963	     -55.028	     -28.992	     -54.822	     -11.195	    -173.163
	7.200000000	      -9.499	      52.417	     -28.661	     -67.356	     -28.691	     -67.134	     -11.745	    -179.467
	7.400000000	      -9.744	      45.108	     -28.414	     -79.426	     -28.443	     -79.301	     -12.219	     174.337
	7.600000000	      -9.974	      38.204	     -28.202	     -91.431	     -28.234	     -91.270	     -12.664	     168.041
	7.800000000	     -10.288	      31.797	     -28.027	    -103.212	     -28.066	    -103.033	     -13.082	     161.870
	8.000000000	     -10.571	      25.630	     -27.896	    -114.845	     -27.926	    -114.661	     -13.448	     155.717
	8.200000000	     -10.898	      19.764	     -27.778	    -126.280	     -27.806	    -126.086	     -13.842	     149.925
	8.400000000	     -11.238	      14.231	     -27.686	    -137.529	     -27.712	    -137.363	     -14.223	     144.679
	8.600000000	     -11.607	       9.000	     -27.604	    -148.676	     -27.636	    -148.486	     -14.671	     139.480
	8.800000000	     -11.971	       3.956	     -27.559	    -159.723	     -27.588	    -159.545	     -15.157	     134.400
	9.000000000	     -12.351	      -0.716	     -27.533	    -170.578	     -27.558	    -170.369	     -15.730	     129.412
	9.200000000	     -12.717	      -5.240	     -27.512	     178.666	     -27.538	     178.870	     -16.351	     124.227
	9.400000000	     -13.104	      -9.174	     -27.497	     168.119	     -27.525	     168.238	     -17.023	     118.477
	9.600000000	     -13.426	     -12.829	     -27.507	     157.618	     -27.532	     157.772	     -17.886	     112.228
	9.800000000	     -13.783	     -15.981	     -27.506	     147.176	     -27.531	     147.367	     -18.744	     104.568
	10.000000000	     -14.084	     -18.675	     -27.530	     136.784	     -27.561	     136.991	     -19.647	      96.860
	10.200000000	     -14.337	     -20.782	     -27.573	     126.460	     -27.597	     126.688	     -20.555	      86.765
	10.400000000	     -14.603	     -22.634	     -27.604	     116.230	     -27.634	     116.437	     -21.217	      75.340
	10.600000000	     -14.750	     -23.993	     -27.664	     106.161	     -27.685	     106.301	     -21.936	      62.172
	10.800000000	     -14.866	     -24.779	     -27.747	      96.127	     -27.761	      96.134	     -22.201	      47.804
	11.000000000	     -14.917	     -24.851	     -27.833	      86.185	     -27.847	      86.178	     -22.031	      34.976
	11.200000000	     -14.923	     -24.960	     -27.906	      76.270	     -27.917	      76.234	     -21.657	      22.830
	11.400000000	     -14.852	     -24.520	     -27.992	      66.370	     -28.002	      66.381	     -21.040	      12.442
	11.600000000	     -14.680	     -23.559	     -28.077	      56.531	     -28.082	      56.546	     -20.399	       4.181
	11.800000000	     -14.512	     -22.481	     -28.173	      46.761	     -28.183	      46.727	     -19.722	      -2.937
	12.000000000	     -14.231	     -21.688	     -28.261	      37.154	     -28.277	      37.153	     -19.154	      -8.008
	12.200000000	     -13.909	     -20.256	     -28.345	      27.589	     -28.343	      27.468	     -18.640	     -12.895
	12.400000000	     -13.610	     -19.343	     -28.439	      18.069	     -28.438	      17.939	     -18.136	     -16.242
	12.600000000	     -13.274	     -18.254	     -28.527	       8.745	     -28.522	       8.640	     -17.921	     -19.293
	12.800000000	     -12.988	     -17.230	     -28.591	      -0.407	     -28.583	      -0.507	     -17.681	     -22.066
	13.000000000	     -12.684	     -16.755	     -28.634	      -9.512	     -28.632	      -9.638	     -17.546	     -24.166
	13.200000000	     -12.365	     -16.172	     -28.663	     -18.466	     -28.666	     -18.612	     -17.474	     -26.413
	13.400000000	     -12.108	     -15.832	     -28.687	     -27.524	     -28.684	     -27.665	     -17.452	     -28.706
	13.600000000	     -11.894	     -15.889	     -28.702	     -36.384	     -28.695	     -36.552	     -17.434	     -30.403
	13.800000000	     -11.682	     -15.704	     -28.714	     -45.211	     -28.698	     -45.361	     -17.580	     -32.130
	14.000000000	     -11.537	     -15.981	     -28.697	     -53.982	     -28.689	     -54.075	     -17.698	     -33.912
	14.200000000	     -11.395	     -16.145	     -28.671	     -62.636	     -28.675	     -62.732	     -17.976	     -35.785
	14.400000000	     -11.297	     -16.417	     -28.646	     -71.290	     -28.646	     -71.415	     -18.148	     -38.121
	14.600000000	     -11.240	     -16.970	     -28.610	     -79.834	     -28.610	     -79.970	     -18.468	     -39.183
	14.800000000	     -11.199	     -17.703	     -28.573	     -88.320	     -28.571	     -88.463	     -18.793	     -39.543
	15.000000000	     -11.265	     -18.382	     -28.526	     -96.818	     -28.528	     -96.942	     -19.146	     -41.051
	15.200000000	     -11.349	     -19.625	     -28.486	    -105.208	     -28.484	    -105.332	     -19.480	     -42.005
	15.400000000	     -11.506	     -20.936	     -28.443	    -113.528	     -28.437	    -113.666	     -19.971	     -43.076
	15.600000000	     -11.681	     -22.586	     -28.382	    -121.929	     -28.385	    -121.902	     -20.427	     -43.393
	15.800000000	     -11.913	     -24.767	     -28.323	    -129.986	     -28.336	    -130.027	     -21.038	     -43.805
	16.000000000	     -12.209	     -27.278	     -28.248	    -138.026	     -28.258	    -138.039	     -21.615	     -43.436
	16.200000000	     -12.459	     -29.982	     -28.149	    -145.970	     -28.160	    -145.962	     -22.330	     -43.065
	16.400000000	     -12.798	     -33.194	     -28.008	    -154.138	     -28.021	    -154.101	     -23.106	     -42.728
	16.600000000	     -13.151	     -36.510	     -27.846	    -162.503	     -27.859	    -162.479	     -24.181	     -42.421
	16.800000000	     -13.365	     -40.062	     -27.687	    -171.511	     -27.697	    -171.455	     -25.334	     -42.720
	17.000000000	     -13.629	     -43.729	     -27.635	     179.082	     -27.648	     179.108	     -26.412	     -40.912
	17.200000000	     -13.839	     -47.508	     -27.717	     169.963	     -27.735	     169.979	     -27.099	     -41.015
	17.400000000	     -14.015	     -51.772	     -27.845	     161.818	     -27.859	     161.835	     -29.298	     -42.615
	17.600000000	     -14.076	     -54.928	     -27.836	     153.942	     -27.849	     153.955	     -31.513	     -42.044
	17.800000000	     -14.132	     -58.874	     -27.847	     145.827	     -27.862	     145.809	     -34.798	     -38.116
	18.000000000	     -14.104	     -61.478	     -27.861	     137.671	     -27.876	     137.686	     -38.981	     -15.838
	18.200000000	     -14.070	     -64.357	     -27.866	     129.655	     -27.884	     129.688	     -43.310	      31.980
	18.400000000	     -13.926	     -66.636	     -27.875	     121.693	     -27.887	     121.701	     -38.186	      72.409
	18.600000000	     -13.787	     -68.351	     -27.874	     113.665	     -27.888	     113.690	     -34.315	      89.262
	18.800000000	     -13.683	     -69.498	     -27.874	     105.696	     -27.880	     105.686	     -31.027	      90.394
	19.000000000	     -13.543	     -70.512	     -27.856	      97.719	     -27.874	      97.723	     -28.753	      94.813
	19.200000000	     -13.424	     -70.936	     -27.834	      89.671	     -27.849	      89.778	     -27.278	      93.389
	19.400000000	     -13.152	     -71.159	     -27.806	      81.725	     -27.820	      81.857	     -25.777	      94.514
	19.600000000	     -12.932	     -73.269	     -27.735	      73.451	     -27.745	      73.577	     -23.886	      95.939
	19.800000000	     -13.191	     -72.251	     -27.787	      65.014	     -27.794	      65.101	     -21.985	      92.319
	20.000000000	     -13.011	     -70.609	     -27.794	      57.094	     -27.810	      57.213	     -21.221	      85.584
	20.200000000	     -12.740	     -70.235	     -27.781	      49.004	     -27.802	      49.154	     -20.268	      84.540
	20.400000000	     -12.456	     -70.306	     -27.755	      40.850	     -27.767	      40.983	     -19.401	      82.004
	20.600000000	     -12.406	     -73.230	     -27.749	      32.330	     -27.763	      32.454	     -18.655	      79.573
	20.800000000	     -12.640	     -73.735	     -27.817	      23.906	     -27.833	      23.999	     -17.989	      76.360
	21.000000000	     -12.705	     -74.097	     -27.886	      15.775	     -27.907	      15.888	     -17.494	      74.830
	21.200000000	     -12.809	     -74.647	     -27.946	       7.810	     -27.965	       7.931	     -16.870	      72.353
	21.400000000	     -12.940	     -75.492	     -27.993	      -0.164	     -28.011	      -0.053	     -16.450	      71.542
	21.600000000	     -13.041	     -77.436	     -28.029	      -8.183	     -28.045	      -8.094	     -16.057	      69.123
	21.800000000	     -13.130	     -79.779	     -28.075	     -16.254	     -28.096	     -16.094	     -15.727	      67.901
	22.000000000	     -13.276	     -82.666	     -28.118	     -24.261	     -28.141	     -24.178	     -15.375	      64.935
	22.200000000	     -13.292	     -85.803	     -28.150	     -32.484	     -28.176	     -32.365	     -15.167	      62.825
	22.400000000	     -13.341	     -90.572	     -28.200	     -40.985	     -28.217	     -40.869	     -14.934	      59.789
	22.600000000	     -13.378	     -95.500	     -28.313	     -49.660	     -28.326	     -49.517	     -14.894	      56.755
	22.800000000	     -13.363	    -101.232	     -28.477	     -58.576	     -28.497	     -58.444	     -14.790	      52.985
	23.000000000	     -13.213	    -107.686	     -28.826	     -67.344	     -28.841	     -67.176	     -14.778	      49.523
	23.200000000	     -13.072	    -113.368	     -29.179	     -75.055	     -29.194	     -74.858	     -14.540	      44.892
	23.400000000	     -12.811	    -120.291	     -29.694	     -82.858	     -29.718	     -82.717	     -14.450	      40.757
	23.600000000	     -12.662	    -126.720	     -30.515	     -87.499	     -30.536	     -87.364	     -14.224	      36.449
	23.800000000	     -12.352	    -129.852	     -30.465	     -86.055	     -30.493	     -85.962	     -14.069	      30.535
	24.000000000	     -11.750	    -134.282	     -29.377	     -92.458	     -29.400	     -92.257	     -13.653	      25.118
	24.200000000	     -11.109	    -140.052	     -29.029	    -102.921	     -29.040	    -102.915	     -13.688	      19.269
	24.400000000	     -10.547	    -145.888	     -29.044	    -112.598	     -29.059	    -112.548	     -13.371	      15.011
	24.600000000	     -10.094	    -152.038	     -29.135	    -121.586	     -29.149	    -121.522	     -13.184	      11.568
	24.800000000	      -9.604	    -157.034	     -29.260	    -130.135	     -29.270	    -130.093	     -12.853	       7.695
	25.000000000	      -9.234	    -163.147	     -29.396	    -138.431	     -29.403	    -138.362	     -12.593	       3.892