!File name = SN03_25C_5V_Phase20.s2p
!Date = 2/3/2014
!Time = 2:35 PM
!Test duration(min) = 0.07
!Test = SPars
!MPTS version = 7.120.8
!Comments = 
!set_LD1(binary) = 20
!set_LD2(binary) = 524267
!test = SPars
!date_code = 20140203
!file_name = SN03_25C_5V_Phase20.s2p
!VREF(V) = 5.000
!VREF(mA) = 0.002
# GHz   S   DB   R   50
!%	Freq(GHz)	     S11(dB)	    S11(deg)	     S21(dB)	    S21(deg)	     S12(dB)	    S12(deg)	     S22(dB)	    S22(deg)
	5.000000000	      -3.035	     172.514	     -30.935	      81.035	     -30.942	      81.048	      -5.240	    -122.654
	5.200000000	      -3.321	     161.355	     -29.485	      69.141	     -29.497	      69.141	      -5.742	    -126.888
	5.400000000	      -3.639	     149.841	     -28.096	      56.970	     -28.101	      56.988	      -6.284	    -131.171
	5.600000000	      -3.996	     138.078	     -26.825	      44.200	     -26.836	      44.241	      -6.897	    -135.763
	5.800000000	      -4.403	     126.169	     -25.618	      30.990	     -25.627	      30.989	      -7.528	    -140.452
	6.000000000	      -4.877	     114.337	     -24.538	      17.219	     -24.551	      17.196	      -8.193	    -145.294
	6.200000000	      -5.421	     102.714	     -23.593	       3.216	     -23.605	       3.196	      -8.874	    -150.460
	6.400000000	      -6.069	      91.499	     -22.762	     -10.888	     -22.773	     -10.895	      -9.546	    -155.746
	6.600000000	      -6.811	      80.926	     -22.031	     -25.042	     -22.040	     -25.067	     -10.220	    -161.066
	6.800000000	      -7.658	      71.062	     -21.393	     -39.429	     -21.425	     -39.267	     -10.830	    -166.719
	7.000000000	      -8.601	      62.347	     -20.880	     -53.517	     -20.909	     -53.376	     -11.403	    -172.348
	7.200000000	      -9.618	      54.868	     -20.462	     -67.421	     -20.492	     -67.310	     -11.943	    -178.271
	7.400000000	     -10.705	      48.934	     -20.135	     -81.137	     -20.164	     -81.010	     -12.392	     175.902
	7.600000000	     -11.739	      44.670	     -19.881	     -94.550	     -19.907	     -94.416	     -12.795	     169.914
	7.800000000	     -12.765	      42.313	     -19.695	    -107.616	     -19.723	    -107.479	     -13.166	     163.965
	8.000000000	     -13.570	      41.288	     -19.562	    -120.360	     -19.590	    -120.216	     -13.475	     157.959
	8.200000000	     -14.180	      41.394	     -19.467	    -132.727	     -19.490	    -132.596	     -13.812	     152.203
	8.400000000	     -14.531	      41.871	     -19.406	    -144.775	     -19.428	    -144.658	     -14.131	     146.928
	8.600000000	     -14.667	      42.097	     -19.364	    -156.518	     -19.389	    -156.404	     -14.522	     141.620
	8.800000000	     -14.633	      41.468	     -19.347	    -168.022	     -19.368	    -167.891	     -14.955	     136.378
	9.000000000	     -14.505	      40.046	     -19.341	    -179.224	     -19.363	    -179.116	     -15.478	     131.201
	9.200000000	     -14.336	      37.661	     -19.345	     169.774	     -19.365	     169.899	     -16.055	     125.789
	9.400000000	     -14.154	      34.965	     -19.354	     158.992	     -19.374	     159.132	     -16.690	     119.791
	9.600000000	     -13.942	      31.427	     -19.366	     148.354	     -19.388	     148.484	     -17.516	     113.331
	9.800000000	     -13.778	      27.997	     -19.383	     137.876	     -19.403	     137.996	     -18.349	     105.451
	10.000000000	     -13.591	      24.213	     -19.405	     127.505	     -19.428	     127.663	     -19.226	      97.557
	10.200000000	     -13.406	      20.485	     -19.432	     117.267	     -19.451	     117.405	     -20.117	      87.344
	10.400000000	     -13.273	      16.819	     -19.459	     107.124	     -19.479	     107.259	     -20.783	      75.857
	10.600000000	     -13.102	      13.056	     -19.496	      97.074	     -19.513	      97.211	     -21.502	      62.722
	10.800000000	     -12.935	       9.688	     -19.544	      87.193	     -19.556	      87.199	     -21.803	      48.379
	11.000000000	     -12.747	       6.775	     -19.592	      77.319	     -19.603	      77.345	     -21.689	      35.541
	11.200000000	     -12.590	       3.939	     -19.633	      67.510	     -19.645	      67.536	     -21.372	      23.308
	11.400000000	     -12.403	       1.576	     -19.684	      57.750	     -19.693	      57.765	     -20.816	      12.801
	11.600000000	     -12.170	      -0.324	     -19.736	      48.052	     -19.748	      48.058	     -20.229	       4.337
	11.800000000	     -11.964	      -1.804	     -19.796	      38.424	     -19.806	      38.419	     -19.607	      -2.923
	12.000000000	     -11.711	      -3.346	     -19.855	      28.874	     -19.865	      28.897	     -19.080	      -8.057
	12.200000000	     -11.416	      -4.154	     -19.915	      19.408	     -19.916	      19.327	     -18.605	     -13.001
	12.400000000	     -11.159	      -5.047	     -19.981	       9.989	     -19.981	       9.923	     -18.135	     -16.301
	12.600000000	     -10.865	      -5.624	     -20.049	       0.713	     -20.049	       0.652	     -17.943	     -19.235
	12.800000000	     -10.602	      -6.020	     -20.111	      -8.413	     -20.112	      -8.489	     -17.722	     -21.844
	13.000000000	     -10.327	      -6.733	     -20.163	     -17.501	     -20.166	     -17.553	     -17.592	     -23.772
	13.200000000	     -10.029	      -7.315	     -20.213	     -26.449	     -20.212	     -26.507	     -17.516	     -25.804
	13.400000000	      -9.773	      -7.995	     -20.252	     -35.363	     -20.254	     -35.441	     -17.473	     -27.898
	13.600000000	      -9.547	      -8.966	     -20.290	     -44.173	     -20.288	     -44.273	     -17.429	     -29.445
	13.800000000	      -9.317	      -9.772	     -20.325	     -52.915	     -20.323	     -53.022	     -17.542	     -31.060
	14.000000000	      -9.140	     -10.959	     -20.347	     -61.633	     -20.346	     -61.735	     -17.615	     -32.822
	14.200000000	      -8.967	     -12.095	     -20.361	     -70.276	     -20.364	     -70.367	     -17.850	     -34.704
	14.400000000	      -8.829	     -13.394	     -20.375	     -78.886	     -20.375	     -78.975	     -17.978	     -37.150
	14.600000000	      -8.734	     -14.949	     -20.384	     -87.427	     -20.384	     -87.528	     -18.253	     -38.375
	14.800000000	      -8.655	     -16.728	     -20.385	     -95.924	     -20.388	     -96.038	     -18.529	     -39.018
	15.000000000	      -8.673	     -18.523	     -20.381	    -104.402	     -20.383	    -104.507	     -18.851	     -40.874
	15.200000000	      -8.712	     -20.843	     -20.372	    -112.883	     -20.372	    -112.945	     -19.166	     -42.218
	15.400000000	      -8.820	     -23.333	     -20.356	    -121.285	     -20.358	    -121.368	     -19.646	     -43.720
	15.600000000	      -8.954	     -26.161	     -20.331	    -129.779	     -20.342	    -129.781	     -20.110	     -44.477
	15.800000000	      -9.140	     -29.484	     -20.307	    -138.160	     -20.317	    -138.178	     -20.742	     -45.350
	16.000000000	      -9.387	     -33.167	     -20.276	    -146.536	     -20.289	    -146.524	     -21.365	     -45.420
	16.200000000	      -9.609	     -37.043	     -20.233	    -154.873	     -20.249	    -154.816	     -22.132	     -45.480
	16.400000000	      -9.902	     -41.392	     -20.182	    -163.259	     -20.195	    -163.240	     -22.992	     -45.653
	16.600000000	     -10.216	     -45.864	     -20.115	    -171.718	     -20.132	    -171.670	     -24.175	     -45.824
	16.800000000	     -10.440	     -50.391	     -20.043	     179.668	     -20.058	     179.690	     -25.476	     -46.593
	17.000000000	     -10.700	     -54.990	     -19.991	     170.784	     -20.007	     170.830	     -26.757	     -44.633
	17.200000000	     -10.914	     -59.630	     -19.993	     161.893	     -20.007	     161.917	     -27.588	     -44.138
	17.400000000	     -11.101	     -64.586	     -20.029	     153.255	     -20.046	     153.299	     -30.002	     -45.556
	17.600000000	     -11.244	     -68.629	     -20.021	     144.841	     -20.037	     144.878	     -32.502	     -44.254
	17.800000000	     -11.375	     -73.165	     -20.023	     136.284	     -20.039	     136.324	     -36.333	     -38.004
	18.000000000	     -11.493	     -76.541	     -20.030	     127.741	     -20.047	     127.784	     -40.746	      -4.187
	18.200000000	     -11.607	     -80.057	     -20.038	     119.259	     -20.053	     119.285	     -41.983	      53.665
	18.400000000	     -11.675	     -82.844	     -20.049	     110.818	     -20.060	     110.880	     -36.303	      76.901
	18.600000000	     -11.771	     -85.082	     -20.055	     102.391	     -20.066	     102.429	     -32.975	      87.893
	18.800000000	     -11.922	     -86.786	     -20.058	      94.002	     -20.072	      94.047	     -30.086	      87.754
	19.000000000	     -12.049	     -88.127	     -20.059	      85.623	     -20.072	      85.661	     -28.140	      91.117
	19.200000000	     -12.219	     -88.868	     -20.050	      77.259	     -20.061	      77.317	     -26.859	      89.445
	19.400000000	     -12.258	     -89.033	     -20.031	      68.929	     -20.042	      68.984	     -25.562	      90.463
	19.600000000	     -12.290	     -90.725	     -19.959	      60.314	     -19.975	      60.368	     -23.862	      92.265
	19.800000000	     -12.854	     -89.860	     -20.022	      51.437	     -20.032	      51.505	     -22.069	      89.191
	20.000000000	     -12.986	     -87.833	     -20.047	      43.146	     -20.061	      43.227	     -21.366	      82.741
	20.200000000	     -12.997	     -86.663	     -20.045	      34.782	     -20.060	      34.841	     -20.482	      82.127
	20.400000000	     -12.971	     -85.742	     -20.024	      26.287	     -20.037	      26.346	     -19.658	      79.948
	20.600000000	     -13.082	     -87.773	     -20.025	      17.445	     -20.037	      17.491	     -18.937	      77.898
	20.800000000	     -13.536	     -87.448	     -20.083	       8.732	     -20.092	       8.758	     -18.293	      75.003
	21.000000000	     -13.780	     -86.596	     -20.137	       0.218	     -20.149	       0.240	     -17.816	      73.893
	21.200000000	     -14.040	     -85.922	     -20.181	      -8.294	     -20.195	      -8.254	     -17.185	      71.747
	21.400000000	     -14.290	     -85.437	     -20.223	     -16.775	     -20.235	     -16.718	     -16.767	      71.331
	21.600000000	     -14.444	     -86.115	     -20.262	     -25.329	     -20.273	     -25.281	     -16.360	      69.197
	21.800000000	     -14.549	     -87.140	     -20.312	     -33.922	     -20.328	     -33.865	     -16.020	      68.206
	22.000000000	     -14.682	     -88.880	     -20.361	     -42.484	     -20.380	     -42.435	     -15.653	      65.485
	22.200000000	     -14.642	     -90.822	     -20.412	     -51.087	     -20.428	     -51.051	     -15.426	      63.536
	22.400000000	     -14.599	     -94.722	     -20.465	     -59.864	     -20.479	     -59.805	     -15.176	      60.646
	22.600000000	     -14.538	     -98.837	     -20.541	     -68.722	     -20.552	     -68.676	     -15.120	      57.723
	22.800000000	     -14.398	    -103.889	     -20.635	     -77.772	     -20.646	     -77.726	     -15.006	      54.060
	23.000000000	     -14.110	    -109.735	     -20.800	     -86.958	     -20.815	     -86.895	     -14.979	      50.732
	23.200000000	     -13.835	    -114.773	     -21.004	     -95.788	     -21.020	     -95.734	     -14.721	      46.190
	23.400000000	     -13.433	    -121.187	     -21.270	    -104.828	     -21.289	    -104.757	     -14.607	      42.177
	23.600000000	     -13.165	    -127.091	     -21.731	    -113.050	     -21.751	    -112.945	     -14.343	      37.915
	23.800000000	     -12.728	    -129.440	     -22.073	    -118.188	     -22.093	    -118.095	     -14.161	      31.867
	24.000000000	     -11.958	    -133.287	     -21.810	    -124.383	     -21.827	    -124.333	     -13.734	      26.265
	24.200000000	     -11.169	    -138.756	     -21.669	    -133.323	     -21.682	    -133.293	     -13.779	      20.396
	24.400000000	     -10.482	    -144.366	     -21.703	    -142.464	     -21.719	    -142.435	     -13.453	      16.164
	24.600000000	      -9.918	    -150.322	     -21.801	    -151.506	     -21.812	    -151.458	     -13.252	      12.707
	24.800000000	      -9.322	    -155.200	     -21.933	    -160.452	     -21.948	    -160.404	     -12.910	       8.814
	25.000000000	      -8.860	    -161.205	     -22.096	    -169.289	     -22.108	    -169.258	     -12.632	       4.995