!File name = SN03_25C_5V_Phase27.s2p
!Date = 2/3/2014
!Time = 2:36 PM
!Test duration(min) = 0.07
!Test = SPars
!MPTS version = 7.120.8
!Comments = 
!set_LD1(binary) = 27
!set_LD2(binary) = 524260
!test = SPars
!date_code = 20140203
!file_name = SN03_25C_5V_Phase27.s2p
!VREF(V) = 5.000
!VREF(mA) = 0.002
# GHz   S   DB   R   50
!%	Freq(GHz)	     S11(dB)	    S11(deg)	     S21(dB)	    S21(deg)	     S12(dB)	    S12(deg)	     S22(dB)	    S22(deg)
	5.000000000	      -7.656	     163.435	     -34.856	      68.040	     -34.877	      68.077	      -5.243	    -122.479
	5.200000000	      -7.777	     152.350	     -33.649	      56.712	     -33.642	      56.757	      -5.737	    -126.658
	5.400000000	      -7.862	     141.102	     -32.487	      45.365	     -32.491	      45.372	      -6.270	    -130.886
	5.600000000	      -7.910	     129.850	     -31.453	      33.443	     -31.455	      33.473	      -6.867	    -135.432
	5.800000000	      -7.947	     118.700	     -30.463	      21.320	     -30.471	      21.277	      -7.478	    -140.102
	6.000000000	      -7.983	     107.913	     -29.562	       8.618	     -29.578	       8.624	      -8.116	    -144.952
	6.200000000	      -8.025	      97.479	     -28.806	      -4.235	     -28.819	      -4.197	      -8.767	    -150.187
	6.400000000	      -8.110	      87.491	     -28.153	     -17.067	     -28.159	     -17.065	      -9.409	    -155.615
	6.600000000	      -8.225	      78.031	     -27.561	     -29.794	     -27.569	     -29.787	     -10.057	    -161.152
	6.800000000	      -8.378	      68.948	     -27.025	     -42.772	     -27.058	     -42.598	     -10.649	    -167.069
	7.000000000	      -8.569	      60.458	     -26.589	     -55.435	     -26.618	     -55.228	     -11.215	    -173.033
	7.200000000	      -8.790	      52.408	     -26.216	     -67.958	     -26.247	     -67.799	     -11.762	    -179.297
	7.400000000	      -9.067	      44.868	     -25.905	     -80.330	     -25.929	     -80.164	     -12.232	     174.550
	7.600000000	      -9.328	      37.756	     -25.634	     -92.524	     -25.663	     -92.360	     -12.670	     168.277
	7.800000000	      -9.672	      31.201	     -25.412	    -104.507	     -25.441	    -104.330	     -13.084	     162.119
	8.000000000	      -9.983	      24.919	     -25.222	    -116.320	     -25.253	    -116.145	     -13.442	     155.980
	8.200000000	     -10.332	      18.970	     -25.062	    -127.911	     -25.089	    -127.760	     -13.828	     150.176
	8.400000000	     -10.690	      13.394	     -24.930	    -139.329	     -24.954	    -139.179	     -14.202	     144.912
	8.600000000	     -11.069	       8.125	     -24.817	    -150.623	     -24.843	    -150.473	     -14.645	     139.681
	8.800000000	     -11.440	       3.072	     -24.734	    -161.798	     -24.757	    -161.614	     -15.124	     134.570
	9.000000000	     -11.817	      -1.626	     -24.667	    -172.717	     -24.690	    -172.561	     -15.695	     129.543
	9.200000000	     -12.178	      -6.186	     -24.616	     176.475	     -24.633	     176.639	     -16.312	     124.328
	9.400000000	     -12.552	     -10.175	     -24.573	     165.811	     -24.599	     165.951	     -16.981	     118.522
	9.600000000	     -12.860	     -13.946	     -24.547	     155.233	     -24.565	     155.397	     -17.841	     112.253
	9.800000000	     -13.199	     -17.258	     -24.522	     144.764	     -24.542	     144.942	     -18.705	     104.557
	10.000000000	     -13.484	     -20.186	     -24.512	     134.399	     -24.535	     134.554	     -19.607	      96.840
	10.200000000	     -13.725	     -22.605	     -24.522	     124.114	     -24.539	     124.278	     -20.516	      86.735
	10.400000000	     -13.981	     -24.850	     -24.533	     113.874	     -24.553	     114.045	     -21.189	      75.321
	10.600000000	     -14.132	     -26.643	     -24.554	     103.796	     -24.575	     103.941	     -21.909	      62.147
	10.800000000	     -14.269	     -27.930	     -24.602	      93.851	     -24.610	      93.856	     -22.183	      47.780
	11.000000000	     -14.356	     -28.559	     -24.653	      83.938	     -24.663	      83.937	     -22.022	      34.983
	11.200000000	     -14.415	     -29.214	     -24.695	      74.075	     -24.706	      74.095	     -21.659	      22.830
	11.400000000	     -14.421	     -29.274	     -24.746	      64.272	     -24.756	      64.285	     -21.053	      12.475
	11.600000000	     -14.351	     -28.753	     -24.796	      54.531	     -24.808	      54.534	     -20.417	       4.172
	11.800000000	     -14.301	     -28.006	     -24.863	      44.841	     -24.871	      44.813	     -19.747	      -2.925
	12.000000000	     -14.144	     -27.375	     -24.920	      35.294	     -24.935	      35.296	     -19.186	      -7.933
	12.200000000	     -13.963	     -25.930	     -24.976	      25.789	     -24.969	      25.695	     -18.677	     -12.797
	12.400000000	     -13.796	     -24.872	     -25.036	      16.376	     -25.034	      16.279	     -18.172	     -16.114
	12.600000000	     -13.590	     -23.465	     -25.095	       7.139	     -25.091	       7.007	     -17.958	     -19.077
	12.800000000	     -13.422	     -22.002	     -25.144	      -1.985	     -25.132	      -2.117	     -17.717	     -21.809
	13.000000000	     -13.222	     -20.991	     -25.172	     -11.097	     -25.166	     -11.204	     -17.576	     -23.835
	13.200000000	     -12.988	     -19.741	     -25.192	     -20.079	     -25.185	     -20.177	     -17.497	     -26.006
	13.400000000	     -12.803	     -18.703	     -25.206	     -29.059	     -25.201	     -29.171	     -17.464	     -28.224
	13.600000000	     -12.644	     -18.041	     -25.210	     -37.931	     -25.211	     -38.030	     -17.431	     -29.884
	13.800000000	     -12.468	     -17.070	     -25.228	     -46.738	     -25.218	     -46.847	     -17.558	     -31.565
	14.000000000	     -12.351	     -16.593	     -25.210	     -55.477	     -25.207	     -55.630	     -17.658	     -33.339
	14.200000000	     -12.219	     -15.939	     -25.199	     -64.217	     -25.196	     -64.324	     -17.914	     -35.221
	14.400000000	     -12.115	     -15.402	     -25.179	     -72.911	     -25.176	     -73.021	     -18.071	     -37.596
	14.600000000	     -12.042	     -15.154	     -25.166	     -81.518	     -25.156	     -81.642	     -18.367	     -38.694
	14.800000000	     -11.963	     -15.117	     -25.136	     -90.121	     -25.137	     -90.233	     -18.668	     -39.179
	15.000000000	     -11.985	     -14.987	     -25.116	     -98.655	     -25.111	     -98.813	     -19.003	     -40.809
	15.200000000	     -12.007	     -15.485	     -25.092	    -107.185	     -25.089	    -107.293	     -19.321	     -41.943
	15.400000000	     -12.093	     -16.040	     -25.064	    -115.605	     -25.059	    -115.719	     -19.800	     -43.179
	15.600000000	     -12.177	     -16.990	     -25.026	    -124.107	     -25.039	    -124.116	     -20.247	     -43.725
	15.800000000	     -12.314	     -18.536	     -24.996	    -132.393	     -25.004	    -132.385	     -20.853	     -44.342
	16.000000000	     -12.500	     -20.407	     -24.951	    -140.649	     -24.959	    -140.655	     -21.431	     -44.244
	16.200000000	     -12.629	     -22.599	     -24.888	    -148.812	     -24.902	    -148.801	     -22.155	     -44.180
	16.400000000	     -12.839	     -25.312	     -24.809	    -157.177	     -24.823	    -157.135	     -22.953	     -44.201
	16.600000000	     -13.049	     -28.197	     -24.708	    -165.620	     -24.724	    -165.613	     -24.061	     -44.270
	16.800000000	     -13.120	     -31.563	     -24.618	    -174.461	     -24.632	    -174.465	     -25.256	     -44.979
	17.000000000	     -13.235	     -35.059	     -24.601	     176.412	     -24.611	     176.432	     -26.406	     -43.490
	17.200000000	     -13.294	     -38.798	     -24.667	     167.459	     -24.680	     167.492	     -27.156	     -43.722
	17.400000000	     -13.329	     -43.127	     -24.763	     159.222	     -24.777	     159.179	     -29.431	     -45.961
	17.600000000	     -13.232	     -46.627	     -24.771	     151.082	     -24.786	     151.091	     -31.797	     -46.140
	17.800000000	     -13.157	     -50.955	     -24.795	     142.738	     -24.806	     142.810	     -35.405	     -43.334
	18.000000000	     -12.986	     -54.263	     -24.826	     134.491	     -24.843	     134.532	     -40.551	     -19.195
	18.200000000	     -12.826	     -57.950	     -24.856	     126.314	     -24.867	     126.352	     -45.185	      45.582
	18.400000000	     -12.589	     -61.246	     -24.885	     118.191	     -24.896	     118.199	     -38.018	      81.474
	18.600000000	     -12.366	     -64.158	     -24.907	     110.085	     -24.920	     110.102	     -33.886	      94.017
	18.800000000	     -12.197	     -66.597	     -24.938	     102.020	     -24.948	     102.041	     -30.649	      93.261
	19.000000000	     -12.020	     -68.961	     -24.952	      93.964	     -24.965	      93.998	     -28.400	      96.424
	19.200000000	     -11.888	     -70.852	     -24.956	      85.893	     -24.970	      85.994	     -26.962	      94.483
	19.400000000	     -11.646	     -72.571	     -24.948	      77.922	     -24.969	      78.013	     -25.492	      95.060
	19.600000000	     -11.486	     -75.938	     -24.900	      69.666	     -24.913	      69.772	     -23.656	      96.165
	19.800000000	     -11.798	     -76.505	     -24.967	      61.228	     -24.980	      61.278	     -21.804	      92.318
	20.000000000	     -11.727	     -76.373	     -24.999	      53.303	     -25.014	      53.422	     -21.067	      85.552
	20.200000000	     -11.609	     -77.305	     -25.001	      45.272	     -25.011	      45.388	     -20.143	      84.386
	20.400000000	     -11.502	     -78.524	     -24.983	      37.150	     -24.996	      37.243	     -19.295	      81.775
	20.600000000	     -11.606	     -82.380	     -24.982	      28.686	     -24.997	      28.781	     -18.565	      79.325
	20.800000000	     -12.044	     -84.008	     -25.039	      20.304	     -25.058	      20.384	     -17.912	      76.085
	21.000000000	     -12.342	     -85.159	     -25.099	      12.180	     -25.118	      12.236	     -17.430	      74.548
	21.200000000	     -12.710	     -86.403	     -25.145	       4.078	     -25.159	       4.175	     -16.812	      72.054
	21.400000000	     -13.127	     -87.714	     -25.182	      -3.981	     -25.197	      -3.913	     -16.406	      71.243
	21.600000000	     -13.507	     -89.850	     -25.215	     -12.164	     -25.229	     -12.076	     -16.016	      68.837
	21.800000000	     -13.883	     -91.990	     -25.257	     -20.345	     -25.276	     -20.301	     -15.696	      67.587
	22.000000000	     -14.309	     -94.574	     -25.297	     -28.586	     -25.317	     -28.481	     -15.345	      64.660
	22.200000000	     -14.589	     -96.867	     -25.331	     -36.831	     -25.352	     -36.736	     -15.143	      62.549
	22.400000000	     -14.846	    -100.862	     -25.374	     -45.362	     -25.389	     -45.261	     -14.911	      59.516
	22.600000000	     -15.078	    -104.833	     -25.453	     -54.035	     -25.467	     -53.937	     -14.872	      56.476
	22.800000000	     -15.211	    -109.530	     -25.575	     -62.887	     -25.597	     -62.820	     -14.771	      52.711
	23.000000000	     -15.142	    -114.847	     -25.822	     -71.776	     -25.837	     -71.667	     -14.759	      49.240
	23.200000000	     -15.083	    -119.198	     -26.086	     -79.961	     -26.101	     -79.841	     -14.523	      44.632
	23.400000000	     -14.831	    -124.961	     -26.457	     -88.297	     -26.476	     -88.220	     -14.432	      40.516
	23.600000000	     -14.709	    -130.176	     -27.069	     -94.664	     -27.085	     -94.600	     -14.204	      36.230
	23.800000000	     -14.371	    -131.223	     -27.212	     -96.644	     -27.229	     -96.531	     -14.043	      30.321
	24.000000000	     -13.628	    -134.095	     -26.529	    -102.882	     -26.545	    -102.788	     -13.626	      24.880
	24.200000000	     -12.830	    -138.792	     -26.266	    -112.582	     -26.283	    -112.563	     -13.664	      19.004
	24.400000000	     -12.119	    -143.753	     -26.282	    -122.022	     -26.300	    -121.991	     -13.347	      14.757
	24.600000000	     -11.535	    -149.204	     -26.369	    -130.988	     -26.377	    -131.013	     -13.162	      11.293
	24.800000000	     -10.889	    -153.431	     -26.483	    -139.810	     -26.501	    -139.761	     -12.833	       7.432
	25.000000000	     -10.390	    -159.074	     -26.614	    -148.416	     -26.624	    -148.387	     -12.573	       3.632