!File name = SN03_25C_5V_Phase30.s2p
!Date = 2/3/2014
!Time = 2:36 PM
!Test duration(min) = 0.07
!Test = SPars
!MPTS version = 7.120.8
!Comments = 
!set_LD1(binary) = 30
!set_LD2(binary) = 524257
!test = SPars
!date_code = 20140203
!file_name = SN03_25C_5V_Phase30.s2p
!VREF(V) = 5.000
!VREF(mA) = 0.003
# GHz   S   DB   R   50
!%	Freq(GHz)	     S11(dB)	    S11(deg)	     S21(dB)	    S21(deg)	     S12(dB)	    S12(deg)	     S22(dB)	    S22(deg)
	5.000000000	      -5.675	     173.289	     -35.363	      66.713	     -35.358	      66.625	      -5.241	    -122.447
	5.200000000	      -6.049	     162.994	     -34.249	      54.852	     -34.263	      54.849	      -5.735	    -126.621
	5.400000000	      -6.420	     152.487	     -33.199	      43.135	     -33.217	      43.101	      -6.265	    -130.844
	5.600000000	      -6.780	     141.881	     -32.291	      30.964	     -32.299	      30.986	      -6.860	    -135.391
	5.800000000	      -7.139	     131.261	     -31.411	      18.730	     -31.423	      18.690	      -7.467	    -140.068
	6.000000000	      -7.488	     120.844	     -30.640	       5.993	     -30.653	       5.982	      -8.101	    -144.935
	6.200000000	      -7.831	     110.666	     -29.996	      -6.857	     -30.013	      -6.881	      -8.750	    -150.190
	6.400000000	      -8.196	     100.861	     -29.451	     -19.529	     -29.464	     -19.578	      -9.390	    -155.649
	6.600000000	      -8.564	      91.522	     -28.962	     -32.072	     -28.973	     -32.059	     -10.037	    -161.223
	6.800000000	      -8.951	      82.509	     -28.531	     -44.800	     -28.557	     -44.606	     -10.630	    -167.189
	7.000000000	      -9.352	      74.065	     -28.182	     -57.166	     -28.208	     -56.980	     -11.197	    -173.183
	7.200000000	      -9.769	      66.037	     -27.875	     -69.333	     -27.909	     -69.157	     -11.751	    -179.489
	7.400000000	     -10.229	      58.537	     -27.618	     -81.350	     -27.655	     -81.207	     -12.226	     174.325
	7.600000000	     -10.666	      51.430	     -27.407	     -93.240	     -27.443	     -93.083	     -12.670	     168.038
	7.800000000	     -11.186	      44.980	     -27.227	    -104.896	     -27.265	    -104.755	     -13.091	     161.881
	8.000000000	     -11.674	      38.770	     -27.079	    -116.479	     -27.116	    -116.235	     -13.455	     155.753
	8.200000000	     -12.209	      33.018	     -26.956	    -127.793	     -26.982	    -127.635	     -13.850	     149.976
	8.400000000	     -12.762	      27.695	     -26.852	    -138.985	     -26.881	    -138.782	     -14.227	     144.737
	8.600000000	     -13.351	      22.793	     -26.756	    -150.064	     -26.785	    -149.883	     -14.675	     139.551
	8.800000000	     -13.939	      18.208	     -26.702	    -161.015	     -26.721	    -160.859	     -15.159	     134.482
	9.000000000	     -14.539	      14.152	     -26.657	    -171.838	     -26.676	    -171.654	     -15.729	     129.502
	9.200000000	     -15.128	      10.406	     -26.618	     177.511	     -26.638	     177.685	     -16.347	     124.326
	9.400000000	     -15.720	       7.589	     -26.597	     166.960	     -26.618	     167.105	     -17.013	     118.554
	9.600000000	     -16.211	       5.146	     -26.583	     156.477	     -26.607	     156.641	     -17.874	     112.309
	9.800000000	     -16.708	       3.677	     -26.578	     146.087	     -26.598	     146.251	     -18.730	     104.646
	10.000000000	     -17.076	       2.881	     -26.587	     135.756	     -26.609	     135.884	     -19.626	      96.939
	10.200000000	     -17.303	       2.866	     -26.609	     125.396	     -26.631	     125.594	     -20.530	      86.833
	10.400000000	     -17.478	       3.307	     -26.639	     115.193	     -26.663	     115.358	     -21.191	      75.408
	10.600000000	     -17.410	       3.892	     -26.686	     105.059	     -26.710	     105.261	     -21.905	      62.225
	10.800000000	     -17.207	       4.852	     -26.758	      95.074	     -26.770	      95.063	     -22.169	      47.848
	11.000000000	     -16.835	       6.042	     -26.842	      85.081	     -26.851	      85.113	     -22.002	      35.031
	11.200000000	     -16.407	       6.673	     -26.908	      75.167	     -26.919	      75.181	     -21.631	      22.855
	11.400000000	     -15.858	       7.184	     -26.987	      65.254	     -26.998	      65.257	     -21.012	      12.474
	11.600000000	     -15.195	       7.459	     -27.074	      55.372	     -27.088	      55.405	     -20.375	       4.161
	11.800000000	     -14.564	       7.590	     -27.177	      45.555	     -27.187	      45.591	     -19.703	      -2.967
	12.000000000	     -13.897	       6.869	     -27.272	      35.918	     -27.282	      35.934	     -19.137	      -8.034
	12.200000000	     -13.196	       6.442	     -27.365	      26.324	     -27.359	      26.218	     -18.625	     -12.961
	12.400000000	     -12.597	       5.550	     -27.468	      16.786	     -27.460	      16.684	     -18.123	     -16.319
	12.600000000	     -11.999	       4.651	     -27.577	       7.424	     -27.573	       7.305	     -17.910	     -19.360
	12.800000000	     -11.483	       3.784	     -27.662	      -1.706	     -27.665	      -1.869	     -17.674	     -22.150
	13.000000000	     -11.014	       2.459	     -27.737	     -10.851	     -27.733	     -10.946	     -17.542	     -24.253
	13.200000000	     -10.559	       1.212	     -27.791	     -19.806	     -27.793	     -19.912	     -17.474	     -26.500
	13.400000000	     -10.185	      -0.075	     -27.845	     -28.778	     -27.842	     -28.872	     -17.453	     -28.794
	13.600000000	      -9.876	      -1.576	     -27.875	     -37.622	     -27.881	     -37.733	     -17.437	     -30.479
	13.800000000	      -9.582	      -2.852	     -27.923	     -46.354	     -27.912	     -46.459	     -17.582	     -32.202
	14.000000000	      -9.365	      -4.380	     -27.930	     -55.055	     -27.930	     -55.159	     -17.702	     -33.966
	14.200000000	      -9.159	      -5.789	     -27.936	     -63.604	     -27.934	     -63.736	     -17.981	     -35.839
	14.400000000	      -8.999	      -7.242	     -27.933	     -72.249	     -27.928	     -72.328	     -18.154	     -38.179
	14.600000000	      -8.889	      -8.861	     -27.914	     -80.741	     -27.916	     -80.827	     -18.471	     -39.204
	14.800000000	      -8.798	     -10.627	     -27.904	     -89.144	     -27.901	     -89.309	     -18.798	     -39.561
	15.000000000	      -8.800	     -12.288	     -27.876	     -97.548	     -27.877	     -97.696	     -19.149	     -41.044
	15.200000000	      -8.825	     -14.421	     -27.848	    -105.897	     -27.849	    -106.052	     -19.486	     -42.025
	15.400000000	      -8.908	     -16.624	     -27.817	    -114.160	     -27.813	    -114.338	     -19.976	     -43.073
	15.600000000	      -9.018	     -19.126	     -27.771	    -122.534	     -27.783	    -122.532	     -20.433	     -43.383
	15.800000000	      -9.175	     -22.053	     -27.725	    -130.583	     -27.732	    -130.615	     -21.041	     -43.785
	16.000000000	      -9.385	     -25.274	     -27.663	    -138.677	     -27.673	    -138.664	     -21.618	     -43.400
	16.200000000	      -9.564	     -28.689	     -27.577	    -146.639	     -27.593	    -146.587	     -22.333	     -43.011
	16.400000000	      -9.807	     -32.489	     -27.461	    -154.805	     -27.478	    -154.774	     -23.112	     -42.693
	16.600000000	     -10.063	     -36.385	     -27.324	    -163.089	     -27.339	    -163.065	     -24.179	     -42.368
	16.800000000	     -10.223	     -40.452	     -27.183	    -171.872	     -27.196	    -171.844	     -25.333	     -42.662
	17.000000000	     -10.414	     -44.567	     -27.116	     178.910	     -27.129	     178.942	     -26.408	     -40.879
	17.200000000	     -10.560	     -48.740	     -27.169	     169.830	     -27.180	     169.880	     -27.089	     -40.978
	17.400000000	     -10.682	     -53.263	     -27.277	     161.535	     -27.287	     161.537	     -29.282	     -42.521
	17.600000000	     -10.731	     -57.002	     -27.267	     153.598	     -27.272	     153.583	     -31.499	     -41.954
	17.800000000	     -10.778	     -61.247	     -27.275	     145.354	     -27.292	     145.377	     -34.764	     -38.080
	18.000000000	     -10.778	     -64.538	     -27.286	     137.174	     -27.300	     137.176	     -38.951	     -15.900
	18.200000000	     -10.774	     -68.006	     -27.302	     129.082	     -27.314	     129.090	     -43.308	      31.215
	18.400000000	     -10.714	     -70.984	     -27.312	     121.076	     -27.327	     121.086	     -38.214	      72.184
	18.600000000	     -10.665	     -73.534	     -27.312	     113.067	     -27.328	     113.082	     -34.341	      89.110
	18.800000000	     -10.656	     -75.640	     -27.312	     105.108	     -27.324	     105.152	     -31.053	      90.361
	19.000000000	     -10.624	     -77.572	     -27.299	      97.164	     -27.316	      97.174	     -28.769	      94.811
	19.200000000	     -10.626	     -79.039	     -27.273	      89.118	     -27.295	      89.222	     -27.297	      93.400
	19.400000000	     -10.507	     -80.282	     -27.246	      81.146	     -27.258	      81.280	     -25.790	      94.549
	19.600000000	     -10.431	     -82.948	     -27.160	      72.949	     -27.185	      73.111	     -23.891	      95.987
	19.800000000	     -10.795	     -83.241	     -27.213	      64.572	     -27.227	      64.657	     -21.991	      92.342
	20.000000000	     -10.768	     -82.749	     -27.214	      56.620	     -27.231	      56.778	     -21.226	      85.651
	20.200000000	     -10.677	     -83.241	     -27.195	      48.628	     -27.213	      48.767	     -20.273	      84.599
	20.400000000	     -10.562	     -84.135	     -27.161	      40.525	     -27.179	      40.581	     -19.407	      82.059
	20.600000000	     -10.614	     -87.572	     -27.144	      32.026	     -27.164	      32.133	     -18.657	      79.619
	20.800000000	     -10.965	     -89.117	     -27.198	      23.644	     -27.212	      23.724	     -17.991	      76.400
	21.000000000	     -11.172	     -90.250	     -27.255	      15.534	     -27.277	      15.612	     -17.494	      74.879
	21.200000000	     -11.415	     -91.609	     -27.298	       7.534	     -27.318	       7.630	     -16.867	      72.380
	21.400000000	     -11.679	     -93.290	     -27.330	      -0.377	     -27.350	      -0.309	     -16.449	      71.587
	21.600000000	     -11.891	     -95.797	     -27.357	      -8.424	     -27.381	      -8.338	     -16.055	      69.168
	21.800000000	     -12.083	     -98.567	     -27.400	     -16.490	     -27.414	     -16.353	     -15.724	      67.914
	22.000000000	     -12.304	    -101.909	     -27.431	     -24.505	     -27.451	     -24.438	     -15.369	      64.965
	22.200000000	     -12.413	    -105.160	     -27.459	     -32.697	     -27.469	     -32.578	     -15.162	      62.846
	22.400000000	     -12.476	    -109.923	     -27.493	     -41.155	     -27.513	     -41.034	     -14.927	      59.791
	22.600000000	     -12.517	    -114.804	     -27.593	     -49.754	     -27.611	     -49.663	     -14.888	      56.754
	22.800000000	     -12.481	    -120.287	     -27.756	     -58.634	     -27.773	     -58.522	     -14.784	      52.979
	23.000000000	     -12.300	    -126.132	     -28.091	     -67.253	     -28.112	     -67.167	     -14.772	      49.497
	23.200000000	     -12.159	    -131.332	     -28.423	     -74.824	     -28.443	     -74.728	     -14.533	      44.891
	23.400000000	     -11.862	    -137.339	     -28.906	     -82.434	     -28.916	     -82.321	     -14.444	      40.738
	23.600000000	     -11.683	    -143.096	     -29.625	     -87.004	     -29.642	     -86.872	     -14.218	      36.440
	23.800000000	     -11.457	    -145.664	     -29.499	     -86.403	     -29.523	     -86.320	     -14.061	      30.522
	24.000000000	     -10.912	    -149.160	     -28.482	     -93.203	     -28.499	     -93.080	     -13.645	      25.095
	24.200000000	     -10.299	    -153.845	     -28.185	    -103.677	     -28.197	    -103.625	     -13.681	      19.230
	24.400000000	      -9.761	    -158.744	     -28.231	    -113.142	     -28.237	    -113.145	     -13.365	      14.979
	24.600000000	      -9.312	    -164.105	     -28.324	    -121.914	     -28.341	    -121.880	     -13.177	      11.521
	24.800000000	      -8.864	    -168.416	     -28.450	    -130.344	     -28.457	    -130.349	     -12.847	       7.650
	25.000000000	      -8.501	    -173.915	     -28.585	    -138.540	     -28.591	    -138.482	     -12.588	       3.871