!File name = SN03_25C_5V_Phase14.s2p
!Date = 2/3/2014
!Time = 2:35 PM
!Test duration(min) = 0.07
!Test = SPars
!MPTS version = 7.120.8
!Comments = 
!set_LD1(binary) = 14
!set_LD2(binary) = 524273
!test = SPars
!date_code = 20140203
!file_name = SN03_25C_5V_Phase14.s2p
!VREF(V) = 5.000
!VREF(mA) = 0.003
# GHz   S   DB   R   50
!%	Freq(GHz)	     S11(dB)	    S11(deg)	     S21(dB)	    S21(deg)	     S12(dB)	    S12(deg)	     S22(dB)	    S22(deg)
	5.000000000	      -5.670	     173.095	     -26.950	      73.509	     -26.959	      73.521	      -1.916	    -131.361
	5.200000000	      -6.050	     162.761	     -25.541	      61.082	     -25.549	      61.088	      -2.271	    -138.420
	5.400000000	      -6.429	     152.220	     -24.209	      48.390	     -24.220	      48.396	      -2.692	    -145.867
	5.600000000	      -6.798	     141.581	     -23.006	      35.244	     -23.020	      35.213	      -3.199	    -153.945
	5.800000000	      -7.169	     130.946	     -21.884	      21.810	     -21.895	      21.768	      -3.765	    -162.417
	6.000000000	      -7.533	     120.539	     -20.890	       7.976	     -20.901	       7.953	      -4.401	    -171.300
	6.200000000	      -7.890	     110.384	     -20.025	      -5.938	     -20.036	      -5.938	      -5.089	     179.387
	6.400000000	      -8.268	     100.636	     -19.274	     -19.736	     -19.286	     -19.740	      -5.814	     169.912
	6.600000000	      -8.648	      91.378	     -18.609	     -33.436	     -18.623	     -33.437	      -6.575	     160.304
	6.800000000	      -9.047	      82.462	     -18.027	     -47.120	     -18.053	     -47.001	      -7.323	     150.669
	7.000000000	      -9.455	      74.141	     -17.536	     -60.415	     -17.558	     -60.330	      -8.080	     141.171
	7.200000000	      -9.878	      66.246	     -17.110	     -73.519	     -17.135	     -73.421	      -8.821	     131.582
	7.400000000	     -10.341	      58.907	     -16.742	     -86.357	     -16.767	     -86.260	      -9.550	     122.453
	7.600000000	     -10.777	      51.976	     -16.422	     -98.959	     -16.447	     -98.854	     -10.262	     113.401
	7.800000000	     -11.289	      45.725	     -16.142	    -111.290	     -16.168	    -111.209	     -10.982	     104.613
	8.000000000	     -11.762	      39.718	     -15.901	    -123.429	     -15.926	    -123.334	     -11.686	      96.084
	8.200000000	     -12.274	      34.162	     -15.685	    -135.358	     -15.706	    -135.290	     -12.423	      87.523
	8.400000000	     -12.792	      29.016	     -15.497	    -147.092	     -15.516	    -147.027	     -13.228	      79.163
	8.600000000	     -13.337	      24.253	     -15.333	    -158.665	     -15.348	    -158.607	     -14.057	      70.105
	8.800000000	     -13.875	      19.759	     -15.192	    -170.095	     -15.206	    -170.048	     -14.911	      60.611
	9.000000000	     -14.421	      15.723	     -15.074	     178.627	     -15.087	     178.671	     -15.795	      49.927
	9.200000000	     -14.954	      11.928	     -14.973	     167.480	     -14.987	     167.526	     -16.597	      38.306
	9.400000000	     -15.488	       8.964	     -14.891	     156.486	     -14.906	     156.548	     -17.277	      25.695
	9.600000000	     -15.929	       6.299	     -14.828	     145.602	     -14.843	     145.677	     -17.721	      11.450
	9.800000000	     -16.379	       4.549	     -14.777	     134.880	     -14.797	     134.963	     -17.846	      -2.205
	10.000000000	     -16.705	       3.334	     -14.743	     124.276	     -14.760	     124.366	     -17.865	     -15.704
	10.200000000	     -16.903	       2.836	     -14.721	     113.813	     -14.738	     113.888	     -17.580	     -27.739
	10.400000000	     -17.067	       2.717	     -14.706	     103.437	     -14.721	     103.507	     -17.269	     -38.092
	10.600000000	     -17.012	       2.738	     -14.708	      93.196	     -14.723	      93.260	     -16.839	     -48.043
	10.800000000	     -16.845	       3.119	     -14.718	      83.083	     -14.731	      83.120	     -16.447	     -56.162
	11.000000000	     -16.540	       3.787	     -14.732	      73.052	     -14.747	      73.087	     -16.237	     -63.574
	11.200000000	     -16.193	       4.039	     -14.748	      63.093	     -14.761	      63.124	     -16.054	     -70.368
	11.400000000	     -15.741	       4.343	     -14.770	      53.200	     -14.783	      53.229	     -15.991	     -76.574
	11.600000000	     -15.180	       4.605	     -14.796	      43.370	     -14.811	      43.403	     -16.070	     -82.358
	11.800000000	     -14.648	       4.876	     -14.831	      33.596	     -14.844	      33.622	     -16.244	     -87.754
	12.000000000	     -14.060	       4.456	     -14.867	      23.910	     -14.882	      23.945	     -16.645	     -93.019
	12.200000000	     -13.426	       4.468	     -14.907	      14.292	     -14.915	      14.280	     -17.113	     -98.208
	12.400000000	     -12.869	       4.065	     -14.954	       4.722	     -14.961	       4.705	     -17.827	    -102.761
	12.600000000	     -12.294	       3.683	     -15.007	      -4.752	     -15.016	      -4.761	     -18.729	    -108.668
	12.800000000	     -11.778	       3.322	     -15.061	     -14.112	     -15.070	     -14.121	     -19.772	    -114.121
	13.000000000	     -11.293	       2.429	     -15.114	     -23.391	     -15.124	     -23.398	     -21.129	    -120.285
	13.200000000	     -10.809	       1.554	     -15.171	     -32.556	     -15.179	     -32.563	     -22.663	    -127.232
	13.400000000	     -10.399	       0.537	     -15.225	     -41.637	     -15.234	     -41.660	     -24.424	    -135.125
	13.600000000	     -10.053	      -0.749	     -15.275	     -50.651	     -15.281	     -50.679	     -26.761	    -145.072
	13.800000000	      -9.715	      -1.892	     -15.325	     -59.558	     -15.331	     -59.605	     -29.257	    -161.720
	14.000000000	      -9.459	      -3.346	     -15.365	     -68.441	     -15.371	     -68.474	     -31.735	     174.127
	14.200000000	      -9.213	      -4.745	     -15.403	     -77.246	     -15.413	     -77.274	     -32.178	     141.208
	14.400000000	      -9.017	      -6.235	     -15.439	     -86.031	     -15.448	     -86.058	     -31.399	     114.324
	14.600000000	      -8.875	      -7.927	     -15.475	     -94.758	     -15.483	     -94.785	     -29.074	      93.416
	14.800000000	      -8.753	      -9.804	     -15.506	    -103.439	     -15.516	    -103.474	     -26.797	      79.699
	15.000000000	      -8.730	     -11.580	     -15.533	    -112.072	     -15.541	    -112.104	     -25.298	      72.078
	15.200000000	      -8.734	     -13.844	     -15.554	    -120.707	     -15.562	    -120.732	     -23.950	      65.523
	15.400000000	      -8.805	     -16.184	     -15.571	    -129.295	     -15.577	    -129.322	     -22.808	      61.808
	15.600000000	      -8.902	     -18.817	     -15.581	    -137.944	     -15.595	    -137.927	     -21.726	      57.948
	15.800000000	      -9.051	     -21.861	     -15.592	    -146.516	     -15.609	    -146.501	     -20.808	      55.355
	16.000000000	      -9.258	     -25.205	     -15.602	    -155.077	     -15.619	    -155.053	     -19.963	      52.485
	16.200000000	      -9.436	     -28.743	     -15.603	    -163.645	     -15.619	    -163.592	     -19.254	      50.136
	16.400000000	      -9.683	     -32.654	     -15.596	    -172.215	     -15.615	    -172.163	     -18.668	      47.834
	16.600000000	      -9.944	     -36.646	     -15.587	     179.208	     -15.604	     179.248	     -18.202	      46.269
	16.800000000	     -10.114	     -40.783	     -15.576	     170.539	     -15.593	     170.574	     -17.856	      44.520
	17.000000000	     -10.310	     -44.933	     -15.576	     161.767	     -15.591	     161.808	     -17.424	      41.978
	17.200000000	     -10.455	     -49.149	     -15.595	     152.974	     -15.612	     153.007	     -17.141	      37.937
	17.400000000	     -10.571	     -53.745	     -15.634	     144.306	     -15.653	     144.342	     -17.049	      36.000
	17.600000000	     -10.623	     -57.565	     -15.652	     135.748	     -15.669	     135.789	     -16.934	      33.117
	17.800000000	     -10.671	     -61.897	     -15.674	     127.105	     -15.693	     127.151	     -16.858	      30.403
	18.000000000	     -10.677	     -65.277	     -15.705	     118.486	     -15.723	     118.548	     -16.702	      27.911
	18.200000000	     -10.683	     -68.815	     -15.732	     109.910	     -15.749	     109.957	     -16.754	      25.081
	18.400000000	     -10.634	     -71.891	     -15.766	     101.372	     -15.786	     101.426	     -16.671	      22.267
	18.600000000	     -10.601	     -74.521	     -15.796	      92.861	     -15.814	      92.908	     -16.750	      19.294
	18.800000000	     -10.608	     -76.718	     -15.825	      84.408	     -15.842	      84.456	     -16.712	      16.453
	19.000000000	     -10.601	     -78.703	     -15.849	      75.959	     -15.865	      76.010	     -16.906	      13.524
	19.200000000	     -10.624	     -80.214	     -15.872	      67.618	     -15.880	      67.602	     -17.022	       9.798
	19.400000000	     -10.526	     -81.478	     -15.879	      59.259	     -15.888	      59.254	     -17.342	       6.715
	19.600000000	     -10.473	     -84.198	     -15.823	      50.727	     -15.832	      50.727	     -17.651	       5.220
	19.800000000	     -10.878	     -84.452	     -15.883	      41.754	     -15.891	      41.746	     -17.948	       3.397
	20.000000000	     -10.878	     -83.842	     -15.925	      33.392	     -15.934	      33.392	     -18.173	       0.077
	20.200000000	     -10.808	     -84.198	     -15.935	      24.995	     -15.946	      24.992	     -18.880	      -0.896
	20.400000000	     -10.717	     -84.920	     -15.921	      16.456	     -15.933	      16.453	     -19.495	      -1.037
	20.600000000	     -10.786	     -88.162	     -15.926	       7.572	     -15.934	       7.570	     -20.030	      -0.746
	20.800000000	     -11.157	     -89.473	     -15.984	      -1.199	     -15.992	      -1.220	     -20.567	      -1.020
	21.000000000	     -11.374	     -90.326	     -16.033	      -9.828	     -16.043	      -9.833	     -21.614	      -0.519
	21.200000000	     -11.615	     -91.420	     -16.073	     -18.441	     -16.081	     -18.457	     -22.379	       2.826
	21.400000000	     -11.869	     -92.809	     -16.110	     -27.095	     -16.118	     -27.111	     -23.745	       7.530
	21.600000000	     -12.054	     -95.075	     -16.146	     -35.837	     -16.158	     -35.830	     -24.633	      13.047
	21.800000000	     -12.216	     -97.653	     -16.196	     -44.628	     -16.207	     -44.622	     -25.680	      22.487
	22.000000000	     -12.404	    -100.850	     -16.251	     -53.432	     -16.262	     -53.415	     -25.792	      30.839
	22.200000000	     -12.474	    -104.052	     -16.310	     -62.241	     -16.322	     -62.237	     -25.952	      40.312
	22.400000000	     -12.502	    -108.764	     -16.372	     -71.151	     -16.382	     -71.142	     -25.480	      46.917
	22.600000000	     -12.509	    -113.690	     -16.444	     -80.140	     -16.453	     -80.136	     -25.277	      51.743
	22.800000000	     -12.439	    -119.259	     -16.530	     -89.308	     -16.539	     -89.303	     -24.746	      53.521
	23.000000000	     -12.235	    -125.295	     -16.673	     -98.657	     -16.682	     -98.640	     -24.360	      56.323
	23.200000000	     -12.083	    -130.697	     -16.867	    -107.765	     -16.878	    -107.750	     -23.228	      53.974
	23.400000000	     -11.793	    -136.941	     -17.107	    -116.926	     -17.119	    -116.895	     -22.495	      52.890
	23.600000000	     -11.638	    -142.812	     -17.493	    -125.473	     -17.504	    -125.430	     -21.393	      49.587
	23.800000000	     -11.425	    -145.259	     -17.797	    -131.634	     -17.811	    -131.582	     -20.782	      41.883
	24.000000000	     -10.835	    -148.660	     -17.626	    -138.514	     -17.639	    -138.461	     -19.818	      35.386
	24.200000000	     -10.192	    -153.561	     -17.535	    -147.572	     -17.549	    -147.529	     -19.774	      30.123
	24.400000000	      -9.645	    -158.658	     -17.587	    -156.816	     -17.601	    -156.768	     -18.907	      27.124
	24.600000000	      -9.198	    -164.196	     -17.684	    -165.971	     -17.701	    -165.912	     -18.244	      25.075
	24.800000000	      -8.757	    -168.658	     -17.816	    -175.049	     -17.830	    -175.012	     -17.430	      21.849
	25.000000000	      -8.405	    -174.276	     -17.975	     175.878	     -17.988	     175.929	     -16.739	      18.493