!File name = SN03_25C_5V_Phase6.s2p
!Date = 2/3/2014
!Time = 2:34 PM
!Test duration(min) = 0.07
!Test = SPars
!MPTS version = 7.120.8
!Comments = 
!set_LD1(binary) = 6
!set_LD2(binary) = 524281
!test = SPars
!date_code = 20140203
!file_name = SN03_25C_5V_Phase6.s2p
!VREF(V) = 5.000
!VREF(mA) = 0.003
# GHz   S   DB   R   50
!%	Freq(GHz)	     S11(dB)	    S11(deg)	     S21(dB)	    S21(deg)	     S12(dB)	    S12(deg)	     S22(dB)	    S22(deg)
	5.000000000	      -5.107	     170.466	     -23.101	      88.672	     -23.109	      88.670	      -1.833	    -132.534
	5.200000000	      -5.433	     159.084	     -21.395	      76.596	     -21.402	      76.588	      -2.193	    -140.086
	5.400000000	      -5.778	     147.269	     -19.744	      63.934	     -19.754	      63.912	      -2.639	    -148.180
	5.600000000	      -6.150	     135.127	     -18.205	      50.522	     -18.214	      50.530	      -3.200	    -157.063
	5.800000000	      -6.570	     122.800	     -16.758	      36.446	     -16.770	      36.445	      -3.867	    -166.464
	6.000000000	      -7.052	     110.576	     -15.448	      21.734	     -15.461	      21.751	      -4.662	    -176.370
	6.200000000	      -7.609	      98.589	     -14.288	       6.638	     -14.301	       6.645	      -5.585	     173.314
	6.400000000	      -8.282	      87.106	     -13.274	      -8.675	     -13.287	      -8.666	      -6.629	     163.041
	6.600000000	      -9.063	      76.446	     -12.396	     -24.096	     -12.410	     -24.081	      -7.798	     153.031
	6.800000000	      -9.958	      66.670	     -11.664	     -39.503	     -11.678	     -39.466	      -9.022	     143.642
	7.000000000	     -10.959	      58.315	     -11.062	     -54.695	     -11.077	     -54.665	     -10.305	     135.316
	7.200000000	     -12.031	      51.504	     -10.578	     -69.615	     -10.593	     -69.588	     -11.559	     127.953
	7.400000000	     -13.164	      46.584	     -10.194	     -84.184	     -10.208	     -84.167	     -12.730	     122.285
	7.600000000	     -14.185	      43.731	      -9.895	     -98.377	      -9.911	     -98.347	     -13.735	     117.578
	7.800000000	     -15.133	      43.053	      -9.668	    -112.126	      -9.684	    -112.104	     -14.543	     113.723
	8.000000000	     -15.727	      43.532	      -9.497	    -125.467	      -9.514	    -125.438	     -15.117	     110.033
	8.200000000	     -16.049	      44.603	      -9.369	    -138.404	      -9.379	    -138.421	     -15.565	     105.754
	8.400000000	     -16.070	      45.140	      -9.276	    -150.945	      -9.283	    -150.956	     -15.977	     101.097
	8.600000000	     -15.932	      44.690	      -9.204	    -163.140	      -9.211	    -163.154	     -16.403	      94.882
	8.800000000	     -15.703	      42.914	      -9.152	    -175.036	      -9.158	    -175.052	     -16.877	      87.522
	9.000000000	     -15.465	      40.250	      -9.113	     173.352	      -9.118	     173.335	     -17.474	      78.439
	9.200000000	     -15.248	      36.689	      -9.082	     161.978	      -9.087	     161.963	     -18.091	      67.785
	9.400000000	     -15.057	      33.058	      -9.062	     150.820	      -9.068	     150.813	     -18.683	      55.200
	9.600000000	     -14.856	      28.779	      -9.046	     139.832	      -9.053	     139.834	     -19.205	      39.915
	9.800000000	     -14.706	      24.775	      -9.039	     129.034	      -9.047	     129.039	     -19.353	      23.734
	10.000000000	     -14.539	      20.511	      -9.038	     118.404	      -9.044	     118.410	     -19.366	       7.224
	10.200000000	     -14.358	      16.352	      -9.042	     107.919	      -9.047	     107.927	     -18.939	      -8.461
	10.400000000	     -14.246	      12.242	      -9.044	      97.563	      -9.050	      97.560	     -18.410	     -22.122
	10.600000000	     -14.087	       8.091	      -9.056	      87.335	      -9.060	      87.323	     -17.766	     -35.219
	10.800000000	     -13.950	       4.252	      -9.064	      77.190	      -9.079	      77.246	     -17.145	     -46.023
	11.000000000	     -13.829	       0.920	      -9.074	      67.187	      -9.088	      67.236	     -16.753	     -55.657
	11.200000000	     -13.766	      -2.284	      -9.080	      57.241	      -9.095	      57.288	     -16.438	     -64.557
	11.400000000	     -13.711	      -4.856	      -9.090	      47.352	      -9.104	      47.401	     -16.292	     -72.728
	11.600000000	     -13.642	      -6.648	      -9.098	      37.524	      -9.113	      37.572	     -16.347	     -80.457
	11.800000000	     -13.638	      -7.655	      -9.107	      27.728	      -9.122	      27.778	     -16.564	     -87.749
	12.000000000	     -13.578	      -8.274	      -9.116	      17.963	      -9.131	      18.011	     -17.089	     -94.900
	12.200000000	     -13.454	      -7.537	      -9.128	       8.230	      -9.137	       8.243	     -17.778	    -101.989
	12.400000000	     -13.324	      -6.485	      -9.148	      -1.489	      -9.156	      -1.474	     -18.853	    -108.389
	12.600000000	     -13.059	      -4.766	      -9.176	     -11.155	      -9.185	     -11.139	     -20.273	    -116.380
	12.800000000	     -12.739	      -2.757	      -9.210	     -20.741	      -9.219	     -20.735	     -22.089	    -123.754
	13.000000000	     -12.316	      -1.384	      -9.250	     -30.276	      -9.259	     -30.258	     -24.613	    -132.298
	13.200000000	     -11.800	      -0.248	      -9.299	     -39.705	      -9.307	     -39.694	     -28.012	    -142.510
	13.400000000	     -11.302	       0.360	      -9.348	     -49.070	      -9.358	     -49.059	     -32.970	    -156.759
	13.600000000	     -10.830	       0.298	      -9.401	     -58.333	      -9.410	     -58.324	     -42.175	     152.410
	13.800000000	     -10.350	       0.003	      -9.459	     -67.506	      -9.466	     -67.502	     -37.042	      65.588
	14.000000000	      -9.951	      -0.925	      -9.511	     -76.617	      -9.519	     -76.619	     -31.808	      43.739
	14.200000000	      -9.569	      -2.064	      -9.565	     -85.640	      -9.575	     -85.639	     -29.109	      35.824
	14.400000000	      -9.249	      -3.476	      -9.618	     -94.625	      -9.629	     -94.619	     -27.643	      26.987
	14.600000000	      -8.998	      -5.276	      -9.669	    -103.511	      -9.680	    -103.511	     -26.481	      23.544
	14.800000000	      -8.789	      -7.392	      -9.717	    -112.352	      -9.728	    -112.350	     -25.623	      21.783
	15.000000000	      -8.693	      -9.442	      -9.760	    -121.118	      -9.769	    -121.119	     -25.493	      20.440
	15.200000000	      -8.644	     -12.017	      -9.792	    -129.880	      -9.802	    -129.878	     -25.353	      21.162
	15.400000000	      -8.675	     -14.667	      -9.819	    -138.605	      -9.828	    -138.600	     -25.391	      25.346
	15.600000000	      -8.748	     -17.615	      -9.837	    -147.392	      -9.851	    -147.357	     -25.003	      30.847
	15.800000000	      -8.882	     -20.926	      -9.856	    -156.136	      -9.869	    -156.100	     -24.392	      37.852
	16.000000000	      -9.080	     -24.520	      -9.873	    -164.861	      -9.888	    -164.823	     -23.375	      43.021
	16.200000000	      -9.258	     -28.287	      -9.887	    -173.573	      -9.899	    -173.568	     -22.290	      47.003
	16.400000000	      -9.509	     -32.414	      -9.892	     177.674	      -9.904	     177.674	     -21.224	      49.327
	16.600000000	      -9.777	     -36.582	      -9.897	     168.920	      -9.907	     168.915	     -20.220	      51.142
	16.800000000	      -9.959	     -40.866	      -9.904	     160.120	      -9.912	     160.113	     -19.331	      51.620
	17.000000000	     -10.166	     -45.113	      -9.910	     151.270	      -9.921	     151.261	     -18.358	      49.853
	17.200000000	     -10.319	     -49.420	      -9.924	     142.386	      -9.934	     142.386	     -17.639	      45.825
	17.400000000	     -10.432	     -54.142	      -9.950	     133.526	      -9.961	     133.537	     -17.132	      43.636
	17.600000000	     -10.494	     -58.134	      -9.966	     124.747	      -9.978	     124.751	     -16.659	      40.130
	17.800000000	     -10.551	     -62.582	      -9.987	     115.895	      -9.999	     115.904	     -16.248	      36.438
	18.000000000	     -10.571	     -66.114	     -10.014	     107.087	     -10.027	     107.100	     -15.800	      32.612
	18.200000000	     -10.599	     -69.788	     -10.039	      98.282	     -10.052	      98.302	     -15.582	      28.301
	18.400000000	     -10.576	     -72.999	     -10.071	      89.523	     -10.083	      89.541	     -15.279	      23.677
	18.600000000	     -10.581	     -75.723	     -10.098	      80.780	     -10.110	      80.795	     -15.162	      18.751
	18.800000000	     -10.628	     -77.987	     -10.126	      72.083	     -10.137	      72.096	     -14.984	      13.623
	19.000000000	     -10.666	     -79.974	     -10.148	      63.377	     -10.160	      63.399	     -15.054	       8.134
	19.200000000	     -10.732	     -81.410	     -10.168	      54.787	     -10.169	      54.727	     -15.097	       1.855
	19.400000000	     -10.668	     -82.561	     -10.174	      46.191	     -10.175	      46.130	     -15.364	      -4.233
	19.600000000	     -10.670	     -85.254	     -10.107	      37.407	     -10.110	      37.358	     -15.669	      -9.685
	19.800000000	     -11.139	     -85.027	     -10.165	      28.099	     -10.167	      28.051	     -16.166	     -15.864
	20.000000000	     -11.155	     -83.905	     -10.212	      19.429	     -10.213	      19.387	     -16.663	     -22.388
	20.200000000	     -11.084	     -83.759	     -10.226	      10.729	     -10.227	      10.682	     -17.678	     -28.236
	20.400000000	     -10.979	     -83.986	     -10.213	       1.894	     -10.215	       1.836	     -18.809	     -33.485
	20.600000000	     -11.025	     -86.732	     -10.220	      -7.304	     -10.222	      -7.360	     -19.999	     -38.504
	20.800000000	     -11.343	     -87.519	     -10.280	     -16.405	     -10.281	     -16.458	     -21.398	     -44.896
	21.000000000	     -11.485	     -87.942	     -10.332	     -25.346	     -10.332	     -25.408	     -23.595	     -54.360
	21.200000000	     -11.624	     -88.698	     -10.374	     -34.321	     -10.375	     -34.379	     -26.582	     -62.698
	21.400000000	     -11.760	     -89.975	     -10.416	     -43.340	     -10.418	     -43.392	     -31.008	     -85.020
	21.600000000	     -11.829	     -92.315	     -10.465	     -52.441	     -10.468	     -52.482	     -35.246	    -129.803
	21.800000000	     -11.875	     -95.209	     -10.523	     -61.578	     -10.527	     -61.629	     -32.144	     171.246
	22.000000000	     -11.966	     -98.852	     -10.589	     -70.731	     -10.592	     -70.775	     -28.518	     146.029
	22.200000000	     -11.957	    -102.686	     -10.664	     -79.886	     -10.667	     -79.936	     -25.384	     134.479
	22.400000000	     -11.936	    -108.043	     -10.741	     -89.103	     -10.744	     -89.142	     -23.375	     125.003
	22.600000000	     -11.911	    -113.655	     -10.825	     -98.324	     -10.827	     -98.371	     -21.937	     119.165
	22.800000000	     -11.834	    -119.932	     -10.911	    -107.689	     -10.914	    -107.729	     -20.870	     112.395
	23.000000000	     -11.655	    -126.655	     -11.028	    -117.224	     -11.030	    -117.267	     -19.853	     107.340
	23.200000000	     -11.551	    -132.734	     -11.193	    -126.682	     -11.196	    -126.720	     -18.944	      98.376
	23.400000000	     -11.341	    -139.492	     -11.389	    -136.136	     -11.395	    -136.171	     -18.139	      91.264
	23.600000000	     -11.286	    -145.653	     -11.682	    -145.287	     -11.688	    -145.321	     -17.380	      82.532
	23.800000000	     -11.158	    -148.039	     -11.957	    -152.915	     -11.963	    -152.941	     -17.179	      72.919
	24.000000000	     -10.585	    -151.512	     -11.931	    -160.702	     -11.939	    -160.732	     -16.686	      64.313
	24.200000000	      -9.990	    -156.674	     -11.914	    -169.966	     -11.929	    -169.927	     -16.549	      58.510
	24.400000000	      -9.517	    -161.963	     -11.995	    -179.373	     -12.009	    -179.329	     -15.799	      52.161
	24.600000000	      -9.144	    -167.580	     -12.106	     171.243	     -12.119	     171.276	     -15.180	      47.144
	24.800000000	      -8.791	    -172.027	     -12.244	     161.835	     -12.257	     161.868	     -14.500	      41.291
	25.000000000	      -8.519	    -177.533	     -12.410	     152.406	     -12.423	     152.444	     -13.924	      35.828