!File name = SN03_25C_5V_Phase3.s2p
!Date = 2/3/2014
!Time = 2:34 PM
!Test duration(min) = 0.07
!Test = SPars
!MPTS version = 7.120.8
!Comments = 
!set_LD1(binary) = 3
!set_LD2(binary) = 524284
!test = SPars
!date_code = 20140203
!file_name = SN03_25C_5V_Phase3.s2p
!VREF(V) = 5.000
!VREF(mA) = 0.002
# GHz   S   DB   R   50
!%	Freq(GHz)	     S11(dB)	    S11(deg)	     S21(dB)	    S21(deg)	     S12(dB)	    S12(deg)	     S22(dB)	    S22(deg)
	5.000000000	      -6.753	     161.028	     -22.879	      92.122	     -22.889	      92.123	      -1.782	    -132.827
	5.200000000	      -6.733	     148.957	     -21.046	      81.273	     -21.055	      81.276	      -2.130	    -140.560
	5.400000000	      -6.682	     136.432	     -19.238	      69.682	     -19.249	      69.694	      -2.565	    -148.930
	5.600000000	      -6.613	     123.563	     -17.504	      57.191	     -17.515	      57.192	      -3.122	    -158.225
	5.800000000	      -6.570	     110.412	     -15.839	      43.778	     -15.852	      43.783	      -3.800	    -168.206
	6.000000000	      -6.589	      97.182	     -14.290	      29.471	     -14.304	      29.497	      -4.638	    -178.881
	6.200000000	      -6.700	      83.952	     -12.880	      14.434	     -12.894	      14.461	      -5.660	     169.871
	6.400000000	      -6.978	      70.844	     -11.624	      -1.187	     -11.639	      -1.164	      -6.881	     158.602
	6.600000000	      -7.440	      58.149	     -10.531	     -17.258	     -10.546	     -17.234	      -8.338	     147.768
	6.800000000	      -8.115	      46.006	      -9.623	     -33.557	      -9.638	     -33.533	      -9.966	     138.163
	7.000000000	      -9.033	      34.992	      -8.895	     -49.822	      -8.907	     -49.812	     -11.756	     130.839
	7.200000000	     -10.179	      25.475	      -8.331	     -65.859	      -8.345	     -65.858	     -13.503	     126.321
	7.400000000	     -11.573	      18.022	      -7.918	     -81.496	      -7.932	     -81.493	     -14.936	     125.547
	7.600000000	     -13.069	      13.647	      -7.626	     -96.604	      -7.640	     -96.597	     -15.774	     126.348
	7.800000000	     -14.638	      12.849	      -7.431	    -111.096	      -7.445	    -111.091	     -16.005	     126.486
	8.000000000	     -15.833	      16.027	      -7.307	    -124.982	      -7.322	    -124.973	     -15.860	     124.247
	8.200000000	     -16.457	      21.698	      -7.231	    -138.280	      -7.239	    -138.311	     -15.682	     119.404
	8.400000000	     -16.350	      27.048	      -7.186	    -151.031	      -7.193	    -151.063	     -15.625	     113.045
	8.600000000	     -15.804	      29.971	      -7.158	    -163.314	      -7.164	    -163.346	     -15.764	     104.773
	8.800000000	     -15.073	      29.989	      -7.138	    -175.211	      -7.143	    -175.238	     -16.084	      95.270
	9.000000000	     -14.367	      27.943	      -7.122	     173.236	      -7.127	     173.200	     -16.626	      84.173
	9.200000000	     -13.734	      24.312	      -7.105	     161.953	      -7.110	     161.922	     -17.278	      71.585
	9.400000000	     -13.201	      20.145	      -7.092	     150.909	      -7.096	     150.888	     -17.968	      57.105
	9.600000000	     -12.713	      15.197	      -7.075	     140.041	      -7.080	     140.030	     -18.629	      39.916
	9.800000000	     -12.327	      10.224	      -7.063	     129.369	      -7.067	     129.362	     -18.928	      21.662
	10.000000000	     -11.968	       4.937	      -7.045	     118.861	      -7.051	     118.858	     -19.054	       2.930
	10.200000000	     -11.645	      -0.357	      -7.032	     108.504	      -7.037	     108.488	     -18.722	     -14.712
	10.400000000	     -11.407	      -5.814	      -7.011	      98.251	      -7.015	      98.237	     -18.285	     -30.157
	10.600000000	     -11.171	     -11.279	      -6.994	      88.121	      -6.997	      88.093	     -17.724	     -44.692
	10.800000000	     -10.996	     -16.632	      -6.970	      78.062	      -6.982	      78.098	     -17.223	     -56.747
	11.000000000	     -10.886	     -21.736	      -6.943	      68.115	      -6.954	      68.152	     -16.991	     -67.807
	11.200000000	     -10.860	     -26.940	      -6.909	      58.195	      -6.921	      58.242	     -16.874	     -78.035
	11.400000000	     -10.909	     -31.779	      -6.873	      48.305	      -6.886	      48.355	     -16.990	     -87.732
	11.600000000	     -11.046	     -36.076	      -6.835	      38.441	      -6.849	      38.488	     -17.379	     -97.249
	11.800000000	     -11.338	     -40.007	      -6.798	      28.557	      -6.810	      28.613	     -18.041	    -106.668
	12.000000000	     -11.704	     -43.409	      -6.760	      18.663	      -6.773	      18.717	     -19.180	    -116.828
	12.200000000	     -12.221	     -45.426	      -6.725	       8.756	      -6.734	       8.774	     -20.725	    -128.013
	12.400000000	     -12.893	     -46.607	      -6.703	      -1.193	      -6.712	      -1.174	     -23.182	    -141.171
	12.600000000	     -13.642	     -45.779	      -6.696	     -11.115	      -6.702	     -11.103	     -26.426	    -163.265
	12.800000000	     -14.469	     -42.918	      -6.700	     -21.009	      -6.709	     -20.994	     -30.356	     156.932
	13.000000000	     -15.113	     -38.182	      -6.720	     -30.844	      -6.728	     -30.828	     -29.565	      96.718
	13.200000000	     -15.464	     -31.367	      -6.754	     -40.585	      -6.761	     -40.570	     -25.668	      62.079
	13.400000000	     -15.498	     -24.129	      -6.797	     -50.255	      -6.806	     -50.242	     -22.726	      42.473
	13.600000000	     -15.210	     -17.774	      -6.850	     -59.808	      -6.860	     -59.790	     -20.508	      28.238
	13.800000000	     -14.644	     -12.372	      -6.914	     -69.237	      -6.923	     -69.220	     -19.052	      17.166
	14.000000000	     -14.038	      -9.029	      -6.977	     -78.583	      -6.986	     -78.562	     -18.028	       6.466
	14.200000000	     -13.387	      -6.885	      -7.042	     -87.801	      -7.052	     -87.791	     -17.469	      -3.327
	14.400000000	     -12.801	      -5.861	      -7.107	     -96.949	      -7.118	     -96.937	     -17.120	     -13.842
	14.600000000	     -12.312	      -6.012	      -7.171	    -105.974	      -7.182	    -105.963	     -17.052	     -22.994
	14.800000000	     -11.898	      -6.927	      -7.231	    -114.904	      -7.241	    -114.896	     -17.222	     -31.702
	15.000000000	     -11.656	      -7.933	      -7.282	    -123.771	      -7.292	    -123.773	     -17.689	     -41.684
	15.200000000	     -11.496	      -9.725	      -7.322	    -132.624	      -7.332	    -132.615	     -18.390	     -51.523
	15.400000000	     -11.455	     -11.584	      -7.354	    -141.428	      -7.363	    -141.417	     -19.517	     -62.384
	15.600000000	     -11.470	     -13.806	      -7.380	    -150.273	      -7.390	    -150.254	     -20.997	     -73.960
	15.800000000	     -11.573	     -16.457	      -7.402	    -159.112	      -7.413	    -159.094	     -23.079	     -88.668
	16.000000000	     -11.761	     -19.326	      -7.422	    -167.933	      -7.435	    -167.915	     -25.677	    -108.318
	16.200000000	     -11.918	     -22.419	      -7.440	    -176.755	      -7.448	    -176.759	     -28.189	    -141.687
	16.400000000	     -12.173	     -25.904	      -7.451	     174.394	      -7.459	     174.383	     -28.024	     174.772
	16.600000000	     -12.442	     -29.407	      -7.463	     165.534	      -7.470	     165.511	     -25.126	     142.567
	16.800000000	     -12.584	     -33.191	      -7.477	     156.634	      -7.484	     156.612	     -22.293	     123.824
	17.000000000	     -12.753	     -36.944	      -7.494	     147.703	      -7.500	     147.689	     -20.166	     109.054
	17.200000000	     -12.855	     -40.941	      -7.513	     138.755	      -7.520	     138.746	     -18.711	      97.050
	17.400000000	     -12.904	     -45.648	      -7.547	     129.834	      -7.555	     129.830	     -17.343	      88.832
	17.600000000	     -12.870	     -49.555	      -7.569	     120.975	      -7.577	     120.973	     -16.282	      80.443
	17.800000000	     -12.842	     -54.177	      -7.597	     112.053	      -7.606	     112.056	     -15.379	      72.441
	18.000000000	     -12.737	     -57.790	      -7.633	     103.169	      -7.643	     103.174	     -14.562	      64.524
	18.200000000	     -12.660	     -61.689	      -7.667	      94.318	      -7.676	      94.317	     -14.013	      57.152
	18.400000000	     -12.515	     -65.182	      -7.707	      85.495	      -7.716	      85.499	     -13.476	      49.488
	18.600000000	     -12.405	     -68.124	      -7.739	      76.715	      -7.749	      76.715	     -13.149	      42.154
	18.800000000	     -12.349	     -70.534	      -7.774	      67.971	      -7.783	      67.978	     -12.822	      34.548
	19.000000000	     -12.294	     -72.691	      -7.801	      59.241	      -7.809	      59.247	     -12.734	      27.218
	19.200000000	     -12.272	     -74.202	      -7.824	      50.602	      -7.826	      50.552	     -12.695	      19.258
	19.400000000	     -12.109	     -75.503	      -7.834	      41.964	      -7.835	      41.904	     -12.845	      11.819
	19.600000000	     -12.082	     -78.641	      -7.775	      33.180	      -7.776	      33.130	     -13.000	       5.040
	19.800000000	     -12.536	     -77.801	      -7.824	      23.867	      -7.825	      23.816	     -13.306	      -2.579
	20.000000000	     -12.474	     -76.311	      -7.865	      15.132	      -7.867	      15.087	     -13.754	     -10.497
	20.200000000	     -12.328	     -75.997	      -7.875	       6.393	      -7.877	       6.341	     -14.566	     -17.128
	20.400000000	     -12.166	     -76.017	      -7.860	      -2.490	      -7.861	      -2.542	     -15.468	     -23.155
	20.600000000	     -12.196	     -78.656	      -7.860	     -11.724	      -7.860	     -11.782	     -16.378	     -28.762
	20.800000000	     -12.495	     -79.000	      -7.911	     -20.876	      -7.911	     -20.927	     -17.436	     -35.441
	21.000000000	     -12.591	     -79.128	      -7.951	     -29.891	      -7.951	     -29.942	     -19.045	     -43.154
	21.200000000	     -12.698	     -79.654	      -7.981	     -38.955	      -7.981	     -39.005	     -20.952	     -49.083
	21.400000000	     -12.813	     -80.728	      -8.012	     -48.068	      -8.014	     -48.116	     -23.629	     -58.556
	21.600000000	     -12.892	     -83.136	      -8.050	     -57.260	      -8.050	     -57.312	     -26.743	     -69.412
	21.800000000	     -12.971	     -86.156	      -8.097	     -66.509	      -8.098	     -66.557	     -31.338	     -93.072
	22.000000000	     -13.136	     -89.923	      -8.148	     -75.767	      -8.151	     -75.824	     -35.873	    -138.283
	22.200000000	     -13.215	     -94.029	      -8.211	     -85.056	      -8.214	     -85.106	     -32.758	     164.074
	22.400000000	     -13.334	     -99.769	      -8.278	     -94.374	      -8.279	     -94.419	     -29.026	     138.893
	22.600000000	     -13.478	    -105.756	      -8.347	    -103.695	      -8.347	    -103.742	     -26.428	     128.225
	22.800000000	     -13.589	    -112.481	      -8.414	    -113.130	      -8.415	    -113.175	     -24.722	     118.489
	23.000000000	     -13.599	    -119.802	      -8.502	    -122.731	      -8.502	    -122.773	     -23.172	     112.116
	23.200000000	     -13.693	    -126.187	      -8.627	    -132.340	      -8.629	    -132.385	     -21.931	     100.578
	23.400000000	     -13.690	    -133.424	      -8.781	    -141.980	      -8.781	    -142.018	     -20.852	      92.247
	23.600000000	     -13.887	    -139.510	      -9.017	    -151.437	      -9.017	    -151.470	     -19.881	      81.723
	23.800000000	     -13.862	    -140.204	      -9.256	    -159.656	      -9.260	    -159.697	     -19.766	      69.998
	24.000000000	     -13.198	    -143.054	      -9.249	    -167.849	      -9.252	    -167.886	     -19.328	      60.597
	24.200000000	     -12.571	    -148.220	      -9.232	    -177.274	      -9.240	    -177.263	     -19.370	      55.470
	24.400000000	     -12.093	    -153.312	      -9.284	     173.111	      -9.293	     173.114	     -18.526	      49.939
	24.600000000	     -11.741	    -158.604	      -9.365	     163.412	      -9.373	     163.418	     -17.868	      46.114
	24.800000000	     -11.354	    -162.175	      -9.472	     153.632	      -9.481	     153.639	     -17.141	      41.443
	25.000000000	     -11.070	    -166.984	      -9.608	     143.784	      -9.616	     143.791	     -16.500	      37.307