!File name = SN03_25C_5V_Phase12.s2p
!Date = 2/3/2014
!Time = 2:35 PM
!Test duration(min) = 0.07
!Test = SPars
!MPTS version = 7.120.8
!Comments = 
!set_LD1(binary) = 12
!set_LD2(binary) = 524275
!test = SPars
!date_code = 20140203
!file_name = SN03_25C_5V_Phase12.s2p
!VREF(V) = 5.000
!VREF(mA) = 0.002
# GHz   S   DB   R   50
!%	Freq(GHz)	     S11(dB)	    S11(deg)	     S21(dB)	    S21(deg)	     S12(dB)	    S12(deg)	     S22(dB)	    S22(deg)
	5.000000000	      -3.565	     175.069	     -25.848	      73.605	     -25.854	      73.612	      -1.916	    -131.375
	5.200000000	      -3.895	     164.864	     -24.419	      61.145	     -24.430	      61.151	      -2.272	    -138.435
	5.400000000	      -4.239	     154.497	     -23.073	      48.456	     -23.087	      48.447	      -2.693	    -145.888
	5.600000000	      -4.592	     144.061	     -21.850	      35.306	     -21.866	      35.264	      -3.200	    -153.977
	5.800000000	      -4.958	     133.650	     -20.721	      21.806	     -20.734	      21.794	      -3.768	    -162.452
	6.000000000	      -5.331	     123.433	     -19.715	       7.983	     -19.727	       7.984	      -4.404	    -171.340
	6.200000000	      -5.712	     113.454	     -18.842	      -5.883	     -18.854	      -5.909	      -5.096	     179.330
	6.400000000	      -6.117	     103.837	     -18.081	     -19.675	     -18.092	     -19.683	      -5.823	     169.841
	6.600000000	      -6.527	      94.651	     -17.405	     -33.337	     -17.419	     -33.331	      -6.589	     160.231
	6.800000000	      -6.958	      85.788	     -16.815	     -46.944	     -16.838	     -46.854	      -7.342	     150.590
	7.000000000	      -7.397	      77.455	     -16.315	     -60.203	     -16.336	     -60.135	      -8.107	     141.101
	7.200000000	      -7.851	      69.535	     -15.877	     -73.230	     -15.901	     -73.170	      -8.856	     131.540
	7.400000000	      -8.339	      62.132	     -15.497	     -86.028	     -15.519	     -85.956	      -9.594	     122.459
	7.600000000	      -8.801	      55.096	     -15.164	     -98.585	     -15.188	     -98.500	     -10.314	     113.467
	7.800000000	      -9.327	      48.733	     -14.875	    -110.879	     -14.898	    -110.810	     -11.040	     104.761
	8.000000000	      -9.820	      42.593	     -14.621	    -122.976	     -14.643	    -122.895	     -11.749	      96.341
	8.200000000	     -10.339	      36.878	     -14.391	    -134.875	     -14.411	    -134.822	     -12.488	      87.890
	8.400000000	     -10.869	      31.565	     -14.193	    -146.576	     -14.207	    -146.530	     -13.290	      79.677
	8.600000000	     -11.419	      26.621	     -14.015	    -158.124	     -14.031	    -158.095	     -14.113	      70.774
	8.800000000	     -11.968	      21.944	     -13.865	    -169.542	     -13.879	    -169.510	     -14.959	      61.431
	9.000000000	     -12.528	      17.702	     -13.734	     179.196	     -13.749	     179.219	     -15.831	      50.915
	9.200000000	     -13.077	      13.722	     -13.624	     168.057	     -13.638	     168.083	     -16.621	      39.434
	9.400000000	     -13.632	      10.535	     -13.535	     157.069	     -13.548	     157.104	     -17.286	      26.981
	9.600000000	     -14.110	       7.648	     -13.460	     146.180	     -13.476	     146.234	     -17.723	      12.842
	9.800000000	     -14.590	       5.650	     -13.403	     135.451	     -13.421	     135.509	     -17.837	      -0.754
	10.000000000	     -14.956	       4.174	     -13.361	     124.849	     -13.376	     124.899	     -17.839	     -14.234
	10.200000000	     -15.212	       3.402	     -13.334	     114.369	     -13.348	     114.427	     -17.540	     -26.311
	10.400000000	     -15.416	       3.017	     -13.313	     103.999	     -13.326	     104.040	     -17.209	     -36.709
	10.600000000	     -15.420	       2.835	     -13.309	      93.749	     -13.322	      93.778	     -16.762	     -46.793
	10.800000000	     -15.308	       2.955	     -13.314	      83.612	     -13.328	      83.653	     -16.348	     -55.042
	11.000000000	     -15.066	       3.347	     -13.323	      73.582	     -13.338	      73.609	     -16.116	     -62.588
	11.200000000	     -14.770	       3.363	     -13.335	      63.615	     -13.350	      63.651	     -15.916	     -69.562
	11.400000000	     -14.372	       3.378	     -13.354	      53.721	     -13.370	      53.749	     -15.837	     -75.951
	11.600000000	     -13.876	       3.354	     -13.381	      43.897	     -13.394	      43.922	     -15.900	     -81.949
	11.800000000	     -13.400	       3.302	     -13.412	      34.139	     -13.427	      34.173	     -16.063	     -87.589
	12.000000000	     -12.871	       2.642	     -13.447	      24.469	     -13.462	      24.495	     -16.455	     -93.113
	12.200000000	     -12.298	       2.345	     -13.486	      14.852	     -13.496	      14.855	     -16.924	     -98.584
	12.400000000	     -11.796	       1.657	     -13.534	       5.305	     -13.544	       5.309	     -17.645	    -103.447
	12.600000000	     -11.274	       1.001	     -13.589	      -4.138	     -13.598	      -4.136	     -18.561	    -109.686
	12.800000000	     -10.811	       0.339	     -13.641	     -13.456	     -13.653	     -13.461	     -19.628	    -115.458
	13.000000000	     -10.368	      -0.807	     -13.696	     -22.696	     -13.708	     -22.697	     -21.017	    -121.988
	13.200000000	      -9.931	      -1.955	     -13.754	     -31.813	     -13.764	     -31.815	     -22.604	    -129.319
	13.400000000	      -9.562	      -3.245	     -13.805	     -40.856	     -13.816	     -40.866	     -24.422	    -137.603
	13.600000000	      -9.251	      -4.832	     -13.854	     -49.794	     -13.864	     -49.811	     -26.843	    -148.175
	13.800000000	      -8.956	      -6.286	     -13.904	     -58.669	     -13.911	     -58.680	     -29.401	    -165.614
	14.000000000	      -8.733	      -8.077	     -13.940	     -67.475	     -13.951	     -67.489	     -31.864	     169.009
	14.200000000	      -8.528	      -9.812	     -13.977	     -76.209	     -13.986	     -76.231	     -32.132	     135.773
	14.400000000	      -8.374	     -11.661	     -14.008	     -84.936	     -14.017	     -84.961	     -31.282	     109.414
	14.600000000	      -8.270	     -13.732	     -14.033	     -93.595	     -14.045	     -93.600	     -28.977	      89.628
	14.800000000	      -8.193	     -15.988	     -14.059	    -102.223	     -14.070	    -102.228	     -26.772	      76.665
	15.000000000	      -8.213	     -18.231	     -14.074	    -110.795	     -14.086	    -110.810	     -25.360	      69.459
	15.200000000	      -8.266	     -20.935	     -14.084	    -119.377	     -14.096	    -119.391	     -24.076	      63.361
	15.400000000	      -8.386	     -23.784	     -14.088	    -127.918	     -14.098	    -127.939	     -22.996	      60.083
	15.600000000	      -8.542	     -26.923	     -14.087	    -136.536	     -14.102	    -136.528	     -21.944	      56.696
	15.800000000	      -8.748	     -30.508	     -14.085	    -145.105	     -14.099	    -145.083	     -21.044	      54.578
	16.000000000	      -9.016	     -34.438	     -14.081	    -153.664	     -14.097	    -153.636	     -20.199	      52.120
	16.200000000	      -9.264	     -38.522	     -14.068	    -162.237	     -14.086	    -162.195	     -19.482	      50.143
	16.400000000	      -9.579	     -43.061	     -14.052	    -170.819	     -14.069	    -170.780	     -18.879	      48.151
	16.600000000	      -9.917	     -47.694	     -14.030	    -179.405	     -14.047	    -179.385	     -18.390	      46.911
	16.800000000	     -10.168	     -52.332	     -14.009	     171.924	     -14.025	     171.943	     -18.017	      45.443
	17.000000000	     -10.450	     -57.022	     -13.995	     163.141	     -14.013	     163.170	     -17.546	      43.057
	17.200000000	     -10.679	     -61.729	     -14.000	     154.327	     -14.017	     154.363	     -17.227	      39.104
	17.400000000	     -10.873	     -66.751	     -14.025	     145.625	     -14.042	     145.667	     -17.095	      37.239
	17.600000000	     -11.032	     -70.924	     -14.028	     137.036	     -14.046	     137.082	     -16.947	      34.396
	17.800000000	     -11.173	     -75.539	     -14.038	     128.367	     -14.055	     128.419	     -16.833	      31.683
	18.000000000	     -11.311	     -79.062	     -14.051	     119.722	     -14.069	     119.782	     -16.637	      29.143
	18.200000000	     -11.449	     -82.710	     -14.064	     111.116	     -14.082	     111.161	     -16.652	      26.240
	18.400000000	     -11.546	     -85.650	     -14.080	     102.543	     -14.098	     102.591	     -16.534	      23.292
	18.600000000	     -11.683	     -88.059	     -14.093	      93.981	     -14.110	      94.032	     -16.577	      20.193
	18.800000000	     -11.878	     -89.941	     -14.102	      85.463	     -14.120	      85.511	     -16.509	      17.151
	19.000000000	     -12.066	     -91.438	     -14.107	      76.933	     -14.125	      76.991	     -16.674	      13.962
	19.200000000	     -12.306	     -92.292	     -14.113	      68.525	     -14.119	      68.482	     -16.767	       9.956
	19.400000000	     -12.424	     -92.488	     -14.103	      60.071	     -14.110	      60.051	     -17.072	       6.550
	19.600000000	     -12.535	     -94.219	     -14.025	      51.406	     -14.031	      51.398	     -17.366	       4.586
	19.800000000	     -13.228	     -93.255	     -14.072	      42.291	     -14.081	      42.276	     -17.682	       2.209
	20.000000000	     -13.481	     -90.825	     -14.106	      33.782	     -14.114	      33.781	     -17.945	      -1.472
	20.200000000	     -13.594	     -89.033	     -14.107	      25.243	     -14.114	      25.243	     -18.694	      -2.947
	20.400000000	     -13.655	     -87.320	     -14.087	      16.571	     -14.094	      16.548	     -19.386	      -3.501
	20.600000000	     -13.834	     -88.527	     -14.085	       7.556	     -14.092	       7.532	     -20.012	      -3.489
	20.800000000	     -14.348	     -87.118	     -14.138	      -1.361	     -14.143	      -1.401	     -20.652	      -3.940
	21.000000000	     -14.604	     -85.001	     -14.183	     -10.120	     -14.189	     -10.152	     -21.841	      -3.547
	21.200000000	     -14.815	     -83.028	     -14.222	     -18.887	     -14.228	     -18.921	     -22.775	       0.215
	21.400000000	     -14.973	     -81.310	     -14.262	     -27.683	     -14.268	     -27.702	     -24.329	       5.651
	21.600000000	     -14.990	     -81.043	     -14.303	     -36.532	     -14.311	     -36.553	     -25.354	      12.609
	21.800000000	     -14.932	     -81.419	     -14.356	     -45.423	     -14.367	     -45.446	     -26.438	      24.162
	22.000000000	     -14.897	     -82.713	     -14.414	     -54.326	     -14.425	     -54.335	     -26.386	      34.256
	22.200000000	     -14.682	     -84.621	     -14.477	     -63.234	     -14.490	     -63.241	     -26.292	      45.000
	22.400000000	     -14.504	     -88.605	     -14.545	     -72.207	     -14.554	     -72.218	     -25.551	      51.616
	22.600000000	     -14.310	     -92.984	     -14.621	     -81.231	     -14.629	     -81.256	     -25.138	      56.124
	22.800000000	     -14.070	     -98.435	     -14.705	     -90.416	     -14.714	     -90.430	     -24.470	      57.265
	23.000000000	     -13.713	    -104.802	     -14.833	     -99.755	     -14.842	     -99.775	     -23.962	      59.306
	23.200000000	     -13.376	    -110.400	     -15.006	    -108.941	     -15.016	    -108.950	     -22.812	      56.252
	23.400000000	     -12.956	    -117.390	     -15.218	    -118.221	     -15.227	    -118.224	     -22.035	      54.490
	23.600000000	     -12.677	    -123.694	     -15.561	    -127.072	     -15.571	    -127.075	     -20.941	      50.496
	23.800000000	     -12.202	    -126.534	     -15.869	    -133.936	     -15.882	    -133.915	     -20.334	      42.278
	24.000000000	     -11.392	    -131.000	     -15.787	    -141.103	     -15.799	    -141.084	     -19.432	      35.325
	24.200000000	     -10.604	    -137.144	     -15.737	    -150.103	     -15.752	    -150.051	     -19.409	      29.755
	24.400000000	      -9.934	    -143.322	     -15.798	    -159.323	     -15.816	    -159.265	     -18.586	      26.453
	24.600000000	      -9.390	    -149.743	     -15.909	    -168.525	     -15.924	    -168.467	     -17.967	      24.095
	24.800000000	      -8.830	    -155.112	     -16.052	    -177.694	     -16.068	    -177.640	     -17.199	      20.648
	25.000000000	      -8.400	    -161.469	     -16.219	     173.171	     -16.235	     173.223	     -16.553	      17.129