!File name = SN03_25C_5V_Phase21.s2p
!Date = 2/3/2014
!Time = 2:35 PM
!Test duration(min) = 0.07
!Test = SPars
!MPTS version = 7.120.8
!Comments = 
!set_LD1(binary) = 21
!set_LD2(binary) = 524266
!test = SPars
!date_code = 20140203
!file_name = SN03_25C_5V_Phase21.s2p
!VREF(V) = 5.000
!VREF(mA) = 0.002
# GHz   S   DB   R   50
!%	Freq(GHz)	     S11(dB)	    S11(deg)	     S21(dB)	    S21(deg)	     S12(dB)	    S12(deg)	     S22(dB)	    S22(deg)
	5.000000000	      -5.684	     164.747	     -32.108	      83.222	     -32.115	      83.190	      -5.241	    -122.661
	5.200000000	      -5.769	     153.223	     -30.610	      71.719	     -30.618	      71.685	      -5.743	    -126.897
	5.400000000	      -5.847	     141.358	     -29.154	      59.840	     -29.170	      59.819	      -6.287	    -131.179
	5.600000000	      -5.925	     129.281	     -27.826	      47.291	     -27.835	      47.264	      -6.901	    -135.767
	5.800000000	      -6.032	     117.098	     -26.553	      34.140	     -26.565	      34.091	      -7.534	    -140.443
	6.000000000	      -6.190	     105.063	     -25.413	      20.342	     -25.429	      20.289	      -8.200	    -145.262
	6.200000000	      -6.412	      93.273	     -24.413	       6.141	     -24.423	       6.098	      -8.882	    -150.399
	6.400000000	      -6.739	      81.901	     -23.543	      -8.193	     -23.558	      -8.212	      -9.551	    -155.656
	6.600000000	      -7.166	      71.165	     -22.787	     -22.656	     -22.799	     -22.670	     -10.221	    -160.938
	6.800000000	      -7.698	      61.102	     -22.138	     -37.348	     -22.173	     -37.202	     -10.823	    -166.565
	7.000000000	      -8.327	      52.084	     -21.634	     -51.712	     -21.660	     -51.585	     -11.384	    -172.198
	7.200000000	      -9.027	      44.134	     -21.231	     -65.904	     -21.260	     -65.771	     -11.914	    -178.151
	7.400000000	      -9.797	      37.406	     -20.925	     -79.776	     -20.952	     -79.639	     -12.352	     175.964
	7.600000000	     -10.532	      31.984	     -20.697	     -93.326	     -20.728	     -93.175	     -12.750	     169.892
	7.800000000	     -11.294	      27.881	     -20.536	    -106.461	     -20.565	    -106.316	     -13.121	     163.851
	8.000000000	     -11.916	      24.780	     -20.427	    -119.204	     -20.454	    -119.063	     -13.433	     157.755
	8.200000000	     -12.451	      22.502	     -20.354	    -131.581	     -20.379	    -131.441	     -13.777	     151.917
	8.400000000	     -12.843	      20.748	     -20.309	    -143.571	     -20.333	    -143.451	     -14.108	     146.568
	8.600000000	     -13.114	      19.187	     -20.278	    -155.288	     -20.302	    -155.150	     -14.513	     141.209
	8.800000000	     -13.249	      17.397	     -20.270	    -166.720	     -20.292	    -166.586	     -14.961	     135.942
	9.000000000	     -13.298	      15.378	     -20.272	    -177.886	     -20.294	    -177.751	     -15.501	     130.746
	9.200000000	     -13.274	      12.822	     -20.275	     171.168	     -20.299	     171.298	     -16.096	     125.356
	9.400000000	     -13.226	      10.191	     -20.286	     160.428	     -20.310	     160.579	     -16.747	     119.379
	9.600000000	     -13.108	       7.048	     -20.300	     149.825	     -20.326	     149.966	     -17.592	     112.974
	9.800000000	     -13.027	       3.908	     -20.317	     139.384	     -20.341	     139.528	     -18.438	     105.142
	10.000000000	     -12.907	       0.569	     -20.337	     129.023	     -20.359	     129.209	     -19.332	      97.332
	10.200000000	     -12.780	      -2.710	     -20.360	     118.813	     -20.386	     118.954	     -20.235	      87.173
	10.400000000	     -12.704	      -6.090	     -20.386	     108.675	     -20.408	     108.812	     -20.912	      75.776
	10.600000000	     -12.579	      -9.431	     -20.418	      98.637	     -20.439	      98.784	     -21.643	      62.671
	10.800000000	     -12.478	     -12.471	     -20.466	      88.778	     -20.480	      88.786	     -21.949	      48.336
	11.000000000	     -12.379	     -15.074	     -20.512	      78.928	     -20.525	      78.937	     -21.828	      35.545
	11.200000000	     -12.306	     -17.698	     -20.551	      69.112	     -20.564	      69.114	     -21.504	      23.344
	11.400000000	     -12.228	     -19.826	     -20.597	      59.362	     -20.608	      59.376	     -20.937	      12.934
	11.600000000	     -12.130	     -21.391	     -20.646	      49.677	     -20.658	      49.682	     -20.335	       4.515
	11.800000000	     -12.081	     -22.609	     -20.698	      40.049	     -20.712	      40.041	     -19.697	      -2.643
	12.000000000	     -11.984	     -23.737	     -20.753	      30.546	     -20.764	      30.540	     -19.154	      -7.725
	12.200000000	     -11.881	     -24.002	     -20.800	      21.082	     -20.801	      20.987	     -18.665	     -12.598
	12.400000000	     -11.812	     -24.322	     -20.855	      11.683	     -20.855	      11.603	     -18.174	     -15.871
	12.600000000	     -11.715	     -24.148	     -20.912	       2.435	     -20.910	       2.354	     -17.969	     -18.795
	12.800000000	     -11.654	     -23.736	     -20.957	      -6.699	     -20.956	      -6.776	     -17.730	     -21.408
	13.000000000	     -11.554	     -23.522	     -20.992	     -15.757	     -20.993	     -15.834	     -17.586	     -23.342
	13.200000000	     -11.421	     -23.005	     -21.022	     -24.709	     -21.024	     -24.827	     -17.500	     -25.427
	13.400000000	     -11.313	     -22.617	     -21.042	     -33.709	     -21.044	     -33.793	     -17.449	     -27.565
	13.600000000	     -11.218	     -22.547	     -21.066	     -42.533	     -21.064	     -42.656	     -17.397	     -29.191
	13.800000000	     -11.104	     -22.223	     -21.084	     -51.316	     -21.079	     -51.448	     -17.502	     -30.849
	14.000000000	     -11.031	     -22.391	     -21.084	     -60.087	     -21.086	     -60.190	     -17.572	     -32.652
	14.200000000	     -10.949	     -22.476	     -21.086	     -68.755	     -21.086	     -68.878	     -17.807	     -34.597
	14.400000000	     -10.895	     -22.738	     -21.083	     -77.458	     -21.083	     -77.557	     -17.934	     -37.083
	14.600000000	     -10.874	     -23.367	     -21.075	     -86.058	     -21.073	     -86.156	     -18.206	     -38.370
	14.800000000	     -10.861	     -24.228	     -21.063	     -94.620	     -21.063	     -94.718	     -18.489	     -39.084
	15.000000000	     -10.959	     -25.187	     -21.046	    -103.151	     -21.047	    -103.246	     -18.814	     -40.964
	15.200000000	     -11.068	     -26.750	     -21.027	    -111.686	     -21.029	    -111.775	     -19.130	     -42.366
	15.400000000	     -11.261	     -28.506	     -21.003	    -120.156	     -21.005	    -120.235	     -19.613	     -43.901
	15.600000000	     -11.475	     -30.647	     -20.969	    -128.720	     -20.982	    -128.727	     -20.083	     -44.715
	15.800000000	     -11.748	     -33.405	     -20.941	    -137.120	     -20.952	    -137.129	     -20.720	     -45.636
	16.000000000	     -12.098	     -36.591	     -20.909	    -145.519	     -20.919	    -145.505	     -21.346	     -45.735
	16.200000000	     -12.411	     -39.958	     -20.858	    -153.849	     -20.874	    -153.828	     -22.126	     -45.872
	16.400000000	     -12.818	     -43.975	     -20.795	    -162.284	     -20.812	    -162.241	     -22.994	     -46.097
	16.600000000	     -13.253	     -48.141	     -20.719	    -170.754	     -20.735	    -170.724	     -24.193	     -46.302
	16.800000000	     -13.559	     -52.352	     -20.639	    -179.480	     -20.652	    -179.439	     -25.510	     -47.121
	17.000000000	     -13.918	     -56.748	     -20.592	     171.543	     -20.606	     171.584	     -26.817	     -45.169
	17.200000000	     -14.221	     -61.209	     -20.604	     162.592	     -20.617	     162.626	     -27.664	     -44.656
	17.400000000	     -14.484	     -66.156	     -20.650	     154.005	     -20.667	     154.048	     -30.129	     -46.132
	17.600000000	     -14.687	     -69.760	     -20.641	     145.645	     -20.656	     145.671	     -32.700	     -44.673
	17.800000000	     -14.863	     -74.127	     -20.640	     137.076	     -20.657	     137.113	     -36.684	     -38.176
	18.000000000	     -15.019	     -76.790	     -20.645	     128.547	     -20.661	     128.581	     -41.151	      -1.416
	18.200000000	     -15.161	     -79.635	     -20.649	     120.091	     -20.665	     120.120	     -41.729	      57.216
	18.400000000	     -15.215	     -81.459	     -20.655	     111.617	     -20.672	     111.657	     -36.021	      78.020
	18.600000000	     -15.291	     -82.482	     -20.655	     103.182	     -20.673	     103.205	     -32.769	      88.083
	18.800000000	     -15.424	     -82.698	     -20.659	      94.751	     -20.673	      94.784	     -29.941	      87.680
	19.000000000	     -15.494	     -82.438	     -20.654	      86.297	     -20.670	      86.353	     -28.028	      90.905
	19.200000000	     -15.595	     -81.339	     -20.650	      77.911	     -20.662	      77.952	     -26.762	      89.177
	19.400000000	     -15.482	     -79.506	     -20.631	      69.525	     -20.645	      69.577	     -25.492	      90.103
	19.600000000	     -15.342	     -79.882	     -20.563	      60.830	     -20.574	      60.894	     -23.810	      91.873
	19.800000000	     -15.785	     -76.589	     -20.630	      51.904	     -20.645	      51.947	     -22.032	      88.823
	20.000000000	     -15.678	     -72.372	     -20.659	      43.578	     -20.677	      43.634	     -21.336	      82.389
	20.200000000	     -15.374	     -69.559	     -20.665	      35.162	     -20.680	      35.225	     -20.466	      81.773
	20.400000000	     -15.019	     -67.275	     -20.650	      26.616	     -20.661	      26.678	     -19.652	      79.620
	20.600000000	     -14.909	     -68.513	     -20.656	      17.743	     -20.668	      17.809	     -18.937	      77.592
	20.800000000	     -15.085	     -66.719	     -20.719	       8.973	     -20.730	       9.017	     -18.298	      74.722
	21.000000000	     -15.002	     -65.054	     -20.782	       0.421	     -20.795	       0.474	     -17.830	      73.641
	21.200000000	     -14.938	     -63.686	     -20.833	      -8.092	     -20.845	      -8.060	     -17.206	      71.519
	21.400000000	     -14.870	     -62.779	     -20.878	     -16.586	     -20.892	     -16.538	     -16.793	      71.139
	21.600000000	     -14.783	     -63.451	     -20.927	     -25.167	     -20.939	     -25.115	     -16.393	      69.055
	21.800000000	     -14.672	     -64.715	     -20.979	     -33.744	     -20.994	     -33.712	     -16.051	      68.125
	22.000000000	     -14.634	     -66.645	     -21.036	     -42.344	     -21.045	     -42.293	     -15.685	      65.414
	22.200000000	     -14.454	     -69.218	     -21.086	     -51.005	     -21.101	     -50.936	     -15.458	      63.528
	22.400000000	     -14.380	     -73.580	     -21.138	     -59.786	     -21.154	     -59.742	     -15.208	      60.661
	22.600000000	     -14.303	     -78.103	     -21.212	     -68.693	     -21.225	     -68.639	     -15.154	      57.788
	22.800000000	     -14.202	     -83.660	     -21.304	     -77.819	     -21.318	     -77.759	     -15.035	      54.151
	23.000000000	     -14.001	     -90.258	     -21.475	     -87.085	     -21.488	     -87.021	     -15.007	      50.841
	23.200000000	     -13.763	     -96.062	     -21.678	     -96.020	     -21.696	     -95.948	     -14.746	      46.330
	23.400000000	     -13.473	    -103.448	     -21.949	    -105.211	     -21.967	    -105.140	     -14.628	      42.318
	23.600000000	     -13.291	    -110.083	     -22.438	    -113.623	     -22.454	    -113.544	     -14.362	      38.066
	23.800000000	     -12.812	    -113.553	     -22.827	    -118.672	     -22.841	    -118.579	     -14.178	      32.033
	24.000000000	     -12.071	    -118.751	     -22.561	    -124.678	     -22.577	    -124.596	     -13.750	      26.435
	24.200000000	     -11.348	    -125.461	     -22.401	    -133.552	     -22.413	    -133.530	     -13.790	      20.579
	24.400000000	     -10.711	    -132.125	     -22.419	    -142.762	     -22.431	    -142.767	     -13.459	      16.347
	24.600000000	     -10.196	    -138.931	     -22.504	    -151.927	     -22.519	    -151.922	     -13.255	      12.884
	24.800000000	      -9.613	    -144.658	     -22.635	    -161.002	     -22.647	    -160.981	     -12.909	       8.984
	25.000000000	      -9.187	    -151.328	     -22.796	    -169.967	     -22.807	    -169.944	     -12.631	       5.155