!File name = SN03_25C_5V_Phase0.s2p
!Date = 2/3/2014
!Time = 2:34 PM
!Test duration(min) = 0.08
!Test = SPars
!MPTS version = 7.120.8
!Comments = 
!set_VREF(v) = 5.000
!set_LD1(binary) = 0
!set_LD2(binary) = 524287
!test = SPars
!date_code = 20140203
!file_name = SN03_25C_5V_Phase0.s2p
!VREF(V) = 5.000
!VREF(mA) = 0.001
# GHz   S   DB   R   50
!%	Freq(GHz)	     S11(dB)	    S11(deg)	     S21(dB)	    S21(deg)	     S12(dB)	    S12(deg)	     S22(dB)	    S22(deg)
	5.000000000	      -2.073	     172.121	     -20.625	      89.622	     -20.632	      89.643	      -1.780	    -132.805
	5.200000000	      -2.259	     160.420	     -18.827	      78.525	     -18.837	      78.533	      -2.124	    -140.518
	5.400000000	      -2.477	     148.186	     -17.072	      66.772	     -17.082	      66.788	      -2.551	    -148.867
	5.600000000	      -2.739	     135.491	     -15.398	      54.238	     -15.409	      54.261	      -3.094	    -158.143
	5.800000000	      -3.065	     122.377	     -13.800	      40.921	     -13.812	      40.937	      -3.749	    -168.138
	6.000000000	      -3.481	     108.996	     -12.314	      26.870	     -12.328	      26.903	      -4.552	    -178.889
	6.200000000	      -4.014	      95.455	     -10.956	      12.280	     -10.970	      12.304	      -5.521	     169.624
	6.400000000	      -4.713	      81.883	      -9.727	      -2.794	      -9.740	      -2.759	      -6.682	     157.843
	6.600000000	      -5.609	      68.520	      -8.631	     -18.247	      -8.645	     -18.219	      -8.084	     146.047
	6.800000000	      -6.759	      55.481	      -7.693	     -33.946	      -7.704	     -33.936	      -9.712	     134.852
	7.000000000	      -8.229	      43.353	      -6.904	     -49.722	      -6.912	     -49.736	     -11.650	     125.260
	7.200000000	     -10.086	      32.654	      -6.263	     -65.448	      -6.270	     -65.463	     -13.829	     118.295
	7.400000000	     -12.479	      24.599	      -5.763	     -80.971	      -5.771	     -80.994	     -16.095	     116.768
	7.600000000	     -15.411	      22.103	      -5.391	     -96.148	      -5.401	     -96.163	     -17.895	     121.357
	7.800000000	     -18.750	      31.010	      -5.132	    -110.863	      -5.141	    -110.878	     -18.481	     129.228
	8.000000000	     -20.197	      54.708	      -4.964	    -125.062	      -4.973	    -125.070	     -17.931	     133.852
	8.200000000	     -18.535	      73.961	      -4.864	    -138.702	      -4.867	    -138.737	     -17.075	     132.729
	8.400000000	     -16.216	      78.835	      -4.811	    -151.781	      -4.815	    -151.809	     -16.362	     128.032
	8.600000000	     -14.395	      76.539	      -4.790	    -164.351	      -4.793	    -164.376	     -15.955	     120.451
	8.800000000	     -13.067	      71.098	      -4.787	    -176.481	      -4.791	    -176.499	     -15.819	     111.195
	9.000000000	     -12.112	      64.420	      -4.792	     171.788	      -4.797	     171.772	     -15.963	     100.421
	9.200000000	     -11.418	      57.131	      -4.801	     160.386	      -4.803	     160.367	     -16.286	      88.307
	9.400000000	     -10.889	      49.878	      -4.811	     149.267	      -4.813	     149.236	     -16.689	      74.488
	9.600000000	     -10.480	      42.390	      -4.819	     138.356	      -4.820	     138.324	     -17.180	      58.467
	9.800000000	     -10.164	      35.218	      -4.829	     127.667	      -4.831	     127.641	     -17.428	      41.006
	10.000000000	      -9.907	      27.966	      -4.837	     117.179	      -4.839	     117.158	     -17.570	      22.872
	10.200000000	      -9.689	      20.849	      -4.847	     106.869	      -4.848	     106.839	     -17.312	       4.830
	10.400000000	      -9.547	      13.807	      -4.846	      96.696	      -4.847	      96.658	     -16.903	     -11.580
	10.600000000	      -9.426	       6.827	      -4.847	      86.658	      -4.849	      86.626	     -16.347	     -27.379
	10.800000000	      -9.359	       0.025	      -4.841	      76.732	      -4.847	      76.740	     -15.767	     -40.988
	11.000000000	      -9.360	      -6.440	      -4.825	      66.941	      -4.832	      66.948	     -15.390	     -53.357
	11.200000000	      -9.447	     -12.820	      -4.798	      57.194	      -4.806	      57.206	     -15.104	     -64.908
	11.400000000	      -9.615	     -18.775	      -4.764	      47.485	      -4.773	      47.504	     -15.002	     -75.903
	11.600000000	      -9.878	     -24.111	      -4.721	      37.805	      -4.730	      37.832	     -15.124	     -86.723
	11.800000000	     -10.304	     -28.869	      -4.671	      28.106	      -4.681	      28.136	     -15.468	     -97.484
	12.000000000	     -10.829	     -32.887	      -4.615	      18.365	      -4.627	      18.395	     -16.172	    -108.834
	12.200000000	     -11.511	     -35.199	      -4.563	       8.585	      -4.567	       8.581	     -17.151	    -121.197
	12.400000000	     -12.367	     -36.104	      -4.515	      -1.281	      -4.520	      -1.281	     -18.680	    -134.951
	12.600000000	     -13.261	     -34.197	      -4.483	     -11.171	      -4.487	     -11.175	     -20.605	    -153.621
	12.800000000	     -14.122	     -29.273	      -4.464	     -21.083	      -4.469	     -21.087	     -22.955	    -178.138
	13.000000000	     -14.584	     -22.049	      -4.465	     -30.976	      -4.470	     -30.979	     -24.772	     145.302
	13.200000000	     -14.477	     -13.520	      -4.486	     -40.806	      -4.491	     -40.813	     -24.336	     104.275
	13.400000000	     -13.929	      -6.179	      -4.524	     -50.569	      -4.530	     -50.578	     -22.431	      72.734
	13.600000000	     -13.106	      -1.230	      -4.577	     -60.226	      -4.584	     -60.224	     -20.335	      50.125
	13.800000000	     -12.161	       1.637	      -4.646	     -69.735	      -4.651	     -69.736	     -18.727	      33.944
	14.000000000	     -11.313	       2.411	      -4.717	     -79.135	      -4.724	     -79.133	     -17.574	      19.824
	14.200000000	     -10.534	       1.968	      -4.796	     -88.374	      -4.804	     -88.378	     -16.883	       7.573
	14.400000000	      -9.883	       0.643	      -4.876	     -97.515	      -4.884	     -97.516	     -16.452	      -4.899
	14.600000000	      -9.374	      -1.534	      -4.955	    -106.500	      -4.963	    -106.499	     -16.294	     -15.726
	14.800000000	      -8.967	      -4.278	      -5.026	    -115.369	      -5.034	    -115.371	     -16.382	     -25.914
	15.000000000	      -8.725	      -6.978	      -5.086	    -124.142	      -5.094	    -124.145	     -16.799	     -37.116
	15.200000000	      -8.575	     -10.258	      -5.131	    -132.883	      -5.139	    -132.894	     -17.452	     -48.036
	15.400000000	      -8.538	     -13.566	      -5.162	    -141.584	      -5.170	    -141.590	     -18.516	     -59.878
	15.600000000	      -8.566	     -17.135	      -5.187	    -150.315	      -5.192	    -150.328	     -19.913	     -72.393
	15.800000000	      -8.672	     -20.994	      -5.201	    -159.061	      -5.207	    -159.073	     -21.870	     -87.724
	16.000000000	      -8.855	     -25.054	      -5.211	    -167.815	      -5.218	    -167.821	     -24.265	    -107.510
	16.200000000	      -9.024	     -29.242	      -5.219	    -176.584	      -5.223	    -176.603	     -26.564	    -138.908
	16.400000000	      -9.260	     -33.755	      -5.220	     174.591	      -5.224	     174.572	     -26.739	    -179.645
	16.600000000	      -9.511	     -38.290	      -5.221	     165.754	      -5.225	     165.731	     -24.332	     147.295
	16.800000000	      -9.676	     -42.925	      -5.227	     156.883	      -5.231	     156.858	     -21.657	     127.009
	17.000000000	      -9.868	     -47.474	      -5.234	     147.982	      -5.239	     147.964	     -19.610	     111.091
	17.200000000	     -10.001	     -52.087	      -5.242	     139.075	      -5.247	     139.056	     -18.180	      98.264
	17.400000000	     -10.061	     -57.161	      -5.263	     130.170	      -5.268	     130.154	     -16.848	      89.335
	17.600000000	     -10.089	     -61.611	      -5.273	     121.317	      -5.280	     121.306	     -15.801	      80.442
	17.800000000	     -10.104	     -66.548	      -5.293	     112.405	      -5.299	     112.398	     -14.910	      71.994
	18.000000000	     -10.091	     -70.693	      -5.319	     103.539	      -5.326	     103.534	     -14.102	      63.636
	18.200000000	     -10.106	     -75.085	      -5.341	      94.709	      -5.347	      94.702	     -13.561	      55.814
	18.400000000	     -10.092	     -79.042	      -5.371	      85.922	      -5.376	      85.914	     -13.025	      47.698
	18.600000000	     -10.135	     -82.613	      -5.391	      77.167	      -5.397	      77.163	     -12.706	      39.833
	18.800000000	     -10.247	     -85.754	      -5.411	      68.465	      -5.416	      68.460	     -12.396	      31.654
	19.000000000	     -10.384	     -88.615	      -5.421	      59.755	      -5.426	      59.756	     -12.334	      23.646
	19.200000000	     -10.577	     -90.880	      -5.425	      51.121	      -5.428	      51.102	     -12.333	      14.984
	19.400000000	     -10.658	     -92.801	      -5.418	      42.498	      -5.420	      42.474	     -12.530	       6.754
	19.600000000	     -10.866	     -96.560	      -5.332	      33.748	      -5.333	      33.715	     -12.761	      -1.236
	19.800000000	     -11.675	     -96.619	      -5.358	      24.358	      -5.359	      24.326	     -13.237	      -9.898
	20.000000000	     -11.965	     -95.306	      -5.384	      15.555	      -5.384	      15.527	     -13.859	     -18.602
	20.200000000	     -12.173	     -94.753	      -5.377	       6.737	      -5.379	       6.712	     -14.897	     -26.351
	20.400000000	     -12.358	     -94.243	      -5.346	      -2.232	      -5.349	      -2.256	     -16.118	     -33.391
	20.600000000	     -12.650	     -96.054	      -5.336	     -11.559	      -5.338	     -11.593	     -17.405	     -39.768
	20.800000000	     -13.237	     -95.553	      -5.379	     -20.787	      -5.382	     -20.814	     -18.943	     -47.529
	21.000000000	     -13.567	     -94.247	      -5.411	     -29.889	      -5.414	     -29.914	     -21.288	     -57.182
	21.200000000	     -13.833	     -93.261	      -5.438	     -39.037	      -5.440	     -39.069	     -24.454	     -64.753
	21.400000000	     -14.028	     -92.941	      -5.469	     -48.230	      -5.471	     -48.263	     -29.239	     -80.440
	21.600000000	     -14.105	     -94.199	      -5.506	     -57.482	      -5.508	     -57.519	     -36.363	    -113.018
	21.800000000	     -14.136	     -96.369	      -5.554	     -66.770	      -5.557	     -66.819	     -35.386	     156.778
	22.000000000	     -14.251	     -99.690	      -5.607	     -76.068	      -5.610	     -76.108	     -30.236	     124.538
	22.200000000	     -14.264	    -103.447	      -5.669	     -85.370	      -5.672	     -85.412	     -26.633	     113.830
	22.400000000	     -14.304	    -109.168	      -5.735	     -94.701	      -5.739	     -94.732	     -24.477	     104.685
	22.600000000	     -14.395	    -115.322	      -5.803	    -104.016	      -5.806	    -104.050	     -23.202	      98.782
	22.800000000	     -14.457	    -122.216	      -5.868	    -113.433	      -5.871	    -113.459	     -22.259	      91.886
	23.000000000	     -14.429	    -129.577	      -5.948	    -122.992	      -5.950	    -123.023	     -21.463	      87.225
	23.200000000	     -14.540	    -135.916	      -6.060	    -132.578	      -6.062	    -132.610	     -20.521	      78.128
	23.400000000	     -14.563	    -142.952	      -6.197	    -142.189	      -6.199	    -142.227	     -19.788	      71.012
	23.600000000	     -14.870	    -148.566	      -6.402	    -151.643	      -6.403	    -151.678	     -19.003	      61.671
	23.800000000	     -15.000	    -147.223	      -6.605	    -160.074	      -6.607	    -160.108	     -18.950	      49.052
	24.000000000	     -14.238	    -148.267	      -6.601	    -168.537	      -6.603	    -168.578	     -18.833	      39.529
	24.200000000	     -13.531	    -152.271	      -6.593	    -178.067	      -6.600	    -178.078	     -19.354	      33.465
	24.400000000	     -13.021	    -156.256	      -6.644	     172.229	      -6.650	     172.225	     -18.967	      29.390
	24.600000000	     -12.640	    -160.378	      -6.720	     162.414	      -6.727	     162.424	     -18.833	      26.932
	24.800000000	     -12.207	    -162.468	      -6.823	     152.483	      -6.829	     152.495	     -18.579	      24.417
	25.000000000	     -11.855	    -165.857	      -6.956	     142.464	      -6.963	     142.475	     -18.328	      23.023