!File name = SN03_25C_5V_Phase2.s2p
!Date = 2/3/2014
!Time = 2:34 PM
!Test duration(min) = 0.07
!Test = SPars
!MPTS version = 7.120.8
!Comments = 
!set_LD1(binary) = 2
!set_LD2(binary) = 524285
!test = SPars
!date_code = 20140203
!file_name = SN03_25C_5V_Phase2.s2p
!VREF(V) = 5.000
!VREF(mA) = 0.002
# GHz   S   DB   R   50
!%	Freq(GHz)	     S11(dB)	    S11(deg)	     S21(dB)	    S21(deg)	     S12(dB)	    S12(deg)	     S22(dB)	    S22(deg)
	5.000000000	      -4.184	     170.626	     -21.703	      89.764	     -21.716	      89.761	      -1.783	    -132.785
	5.200000000	      -4.410	     158.840	     -19.921	      78.612	     -19.930	      78.606	      -2.128	    -140.494
	5.400000000	      -4.651	     146.489	     -18.173	      66.808	     -18.184	      66.822	      -2.556	    -148.830
	5.600000000	      -4.918	     133.643	     -16.508	      54.201	     -16.519	      54.210	      -3.104	    -158.083
	5.800000000	      -5.236	     120.371	     -14.915	      40.798	     -14.928	      40.805	      -3.763	    -168.030
	6.000000000	      -5.632	     106.873	     -13.437	      26.621	     -13.451	      26.638	      -4.572	    -178.699
	6.200000000	      -6.130	      93.250	     -12.091	      11.858	     -12.106	      11.872	      -5.547	     169.960
	6.400000000	      -6.793	      79.674	     -10.882	      -3.376	     -10.897	      -3.356	      -6.708	     158.423
	6.600000000	      -7.647	      66.421	      -9.814	     -18.991	      -9.829	     -18.962	      -8.094	     147.000
	6.800000000	      -8.742	      53.617	      -8.908	     -34.816	      -8.923	     -34.796	      -9.673	     136.321
	7.000000000	     -10.137	      41.906	      -8.156	     -50.661	      -8.169	     -50.658	     -11.494	     127.316
	7.200000000	     -11.873	      31.781	      -7.555	     -66.382	      -7.567	     -66.383	     -13.451	     120.737
	7.400000000	     -14.061	      24.349	      -7.092	     -81.829	      -7.103	     -81.838	     -15.371	     118.561
	7.600000000	     -16.603	      22.065	      -6.750	     -96.880	      -6.763	     -96.886	     -16.859	     120.405
	7.800000000	     -19.388	      28.643	      -6.511	    -111.437	      -6.524	    -111.441	     -17.528	     124.274
	8.000000000	     -20.824	      45.781	      -6.352	    -125.470	      -6.365	    -125.468	     -17.413	     126.418
	8.200000000	     -20.030	      62.597	      -6.254	    -138.950	      -6.262	    -138.990	     -17.006	     124.825
	8.400000000	     -18.231	      69.277	      -6.198	    -151.901	      -6.204	    -151.937	     -16.638	     120.643
	8.600000000	     -16.603	      68.945	      -6.169	    -164.377	      -6.174	    -164.411	     -16.479	     113.775
	8.800000000	     -15.337	      64.906	      -6.154	    -176.446	      -6.160	    -176.472	     -16.530	     105.243
	9.000000000	     -14.397	      59.305	      -6.149	     171.852	      -6.152	     171.821	     -16.836	      95.032
	9.200000000	     -13.696	      52.777	      -6.146	     160.456	      -6.149	     160.423	     -17.295	      83.295
	9.400000000	     -13.151	      46.230	      -6.145	     149.323	      -6.149	     149.286	     -17.829	      69.676
	9.600000000	     -12.715	      39.264	      -6.143	     138.387	      -6.149	     138.360	     -18.423	      53.468
	9.800000000	     -12.381	      32.628	      -6.145	     127.657	      -6.150	     127.636	     -18.718	      35.722
	10.000000000	     -12.094	      25.855	      -6.145	     117.117	      -6.151	     117.105	     -18.883	      17.260
	10.200000000	     -11.847	      19.203	      -6.149	     106.738	      -6.152	     106.713	     -18.579	      -0.866
	10.400000000	     -11.689	      12.653	      -6.143	      96.494	      -6.146	      96.461	     -18.122	     -17.044
	10.600000000	     -11.538	       6.145	      -6.141	      86.376	      -6.144	      86.341	     -17.512	     -32.453
	10.800000000	     -11.446	      -0.118	      -6.132	      76.345	      -6.142	      76.369	     -16.905	     -45.410
	11.000000000	     -11.421	      -5.948	      -6.117	      66.445	      -6.129	      66.467	     -16.538	     -57.076
	11.200000000	     -11.492	     -11.663	      -6.094	      56.581	      -6.106	      56.611	     -16.275	     -67.885
	11.400000000	     -11.641	     -16.821	      -6.066	      46.753	      -6.080	      46.791	     -16.222	     -78.065
	11.600000000	     -11.875	     -21.179	      -6.034	      36.952	      -6.048	      36.995	     -16.415	     -87.966
	11.800000000	     -12.270	     -24.748	      -5.999	      27.151	      -6.014	      27.195	     -16.849	     -97.697
	12.000000000	     -12.735	     -27.430	      -5.963	      17.318	      -5.977	      17.368	     -17.695	    -107.856
	12.200000000	     -13.304	     -28.014	      -5.929	       7.471	      -5.937	       7.481	     -18.862	    -118.765
	12.400000000	     -13.970	     -27.035	      -5.904	      -2.432	      -5.912	      -2.421	     -20.720	    -130.635
	12.600000000	     -14.537	     -23.359	      -5.894	     -12.333	      -5.901	     -12.324	     -23.207	    -147.746
	12.800000000	     -14.926	     -17.346	      -5.897	     -22.217	      -5.904	     -22.209	     -26.644	    -172.186
	13.000000000	     -14.882	     -10.634	      -5.914	     -32.056	      -5.922	     -32.050	     -29.642	     140.803
	13.200000000	     -14.386	      -4.080	      -5.949	     -41.825	      -5.957	     -41.814	     -27.877	      88.278
	13.400000000	     -13.672	       0.918	      -5.996	     -51.514	      -6.004	     -51.504	     -24.622	      58.043
	13.600000000	     -12.860	       3.941	      -6.054	     -61.087	      -6.064	     -61.074	     -21.921	      39.124
	13.800000000	     -12.001	       5.546	      -6.125	     -70.535	      -6.134	     -70.526	     -20.108	      25.992
	14.000000000	     -11.257	       5.680	      -6.197	     -79.896	      -6.206	     -79.877	     -18.858	      14.081
	14.200000000	     -10.573	       5.002	      -6.273	     -89.113	      -6.283	     -89.105	     -18.138	       3.646
	14.400000000	      -9.995	       3.703	      -6.350	     -98.254	      -6.360	     -98.245	     -17.684	      -7.416
	14.600000000	      -9.540	       1.741	      -6.426	    -107.259	      -6.436	    -107.250	     -17.528	     -16.795
	14.800000000	      -9.168	      -0.668	      -6.497	    -116.167	      -6.507	    -116.158	     -17.623	     -25.553
	15.000000000	      -8.941	      -2.972	      -6.558	    -124.988	      -6.568	    -124.980	     -18.065	     -35.418
	15.200000000	      -8.793	      -5.813	      -6.608	    -133.787	      -6.616	    -133.775	     -18.754	     -44.918
	15.400000000	      -8.742	      -8.649	      -6.646	    -142.531	      -6.655	    -142.522	     -19.909	     -55.077
	15.600000000	      -8.742	     -11.752	      -6.679	    -151.313	      -6.688	    -151.300	     -21.453	     -65.445
	15.800000000	      -8.814	     -15.130	      -6.704	    -160.082	      -6.713	    -160.072	     -23.738	     -78.069
	16.000000000	      -8.954	     -18.726	      -6.725	    -168.859	      -6.735	    -168.845	     -26.862	     -94.584
	16.200000000	      -9.072	     -22.486	      -6.743	    -177.644	      -6.750	    -177.648	     -30.915	    -127.523
	16.400000000	      -9.259	     -26.537	      -6.755	     173.544	      -6.761	     173.525	     -31.563	     174.352
	16.600000000	      -9.456	     -30.628	      -6.766	     164.707	      -6.772	     164.689	     -27.245	     136.106
	16.800000000	      -9.565	     -34.922	      -6.782	     155.842	      -6.788	     155.821	     -23.660	     118.312
	17.000000000	      -9.695	     -39.153	      -6.798	     146.953	      -6.805	     146.926	     -21.179	     104.498
	17.200000000	      -9.772	     -43.498	      -6.816	     138.038	      -6.822	     138.026	     -19.560	      93.249
	17.400000000	      -9.800	     -48.347	      -6.847	     129.126	      -6.853	     129.118	     -18.100	      86.016
	17.600000000	      -9.778	     -52.600	      -6.869	     120.272	      -6.877	     120.270	     -16.967	      78.304
	17.800000000	      -9.758	     -57.347	      -6.898	     111.365	      -6.907	     111.362	     -16.011	      70.906
	18.000000000	      -9.695	     -61.357	      -6.936	     102.494	      -6.945	     102.506	     -15.140	      63.447
	18.200000000	      -9.652	     -65.558	      -6.973	      93.669	      -6.981	      93.671	     -14.559	      56.453
	18.400000000	      -9.575	     -69.435	      -7.016	      84.882	      -7.025	      84.882	     -13.985	      49.106
	18.600000000	      -9.534	     -72.884	      -7.052	      76.133	      -7.061	      76.133	     -13.633	      42.019
	18.800000000	      -9.543	     -75.943	      -7.090	      67.444	      -7.098	      67.449	     -13.285	      34.631
	19.000000000	      -9.559	     -78.758	      -7.119	      58.761	      -7.127	      58.776	     -13.187	      27.513
	19.200000000	      -9.609	     -81.064	      -7.143	      50.191	      -7.145	      50.147	     -13.143	      19.699
	19.400000000	      -9.547	     -83.220	      -7.154	      41.608	      -7.156	      41.564	     -13.294	      12.440
	19.600000000	      -9.602	     -86.868	      -7.095	      32.931	      -7.096	      32.887	     -13.466	       5.820
	19.800000000	     -10.108	     -87.410	      -7.139	      23.683	      -7.141	      23.636	     -13.793	      -1.425
	20.000000000	     -10.156	     -87.150	      -7.177	      15.008	      -7.177	      14.967	     -14.249	      -9.019
	20.200000000	     -10.151	     -87.842	      -7.182	       6.326	      -7.182	       6.277	     -15.090	     -15.195
	20.400000000	     -10.127	     -88.881	      -7.160	      -2.503	      -7.162	      -2.545	     -16.023	     -20.566
	20.600000000	     -10.248	     -92.197	      -7.156	     -11.705	      -7.158	     -11.749	     -16.949	     -25.358
	20.800000000	     -10.643	     -93.699	      -7.205	     -20.799	      -7.206	     -20.839	     -18.023	     -31.101
	21.000000000	     -10.872	     -94.711	      -7.239	     -29.760	      -7.241	     -29.800	     -19.687	     -37.410
	21.200000000	     -11.101	     -96.106	      -7.263	     -38.777	      -7.265	     -38.824	     -21.606	     -41.070
	21.400000000	     -11.325	     -98.003	      -7.288	     -47.858	      -7.290	     -47.912	     -24.376	     -46.881
	21.600000000	     -11.481	    -100.926	      -7.319	     -57.036	      -7.320	     -57.087	     -27.591	     -51.818
	21.800000000	     -11.619	    -104.386	      -7.361	     -66.262	      -7.364	     -66.313	     -33.208	     -61.736
	22.000000000	     -11.806	    -108.661	      -7.409	     -75.528	      -7.411	     -75.579	     -44.393	     -77.136
	22.200000000	     -11.914	    -113.049	      -7.468	     -84.805	      -7.471	     -84.845	     -38.922	     135.584
	22.400000000	     -11.994	    -118.894	      -7.534	     -94.114	      -7.536	     -94.162	     -32.006	     120.588
	22.600000000	     -12.082	    -125.042	      -7.603	    -103.432	      -7.605	    -103.478	     -28.703	     116.837
	22.800000000	     -12.125	    -131.715	      -7.672	    -112.862	      -7.675	    -112.905	     -26.627	     110.621
	23.000000000	     -12.069	    -138.687	      -7.762	    -122.447	      -7.765	    -122.486	     -24.828	     107.237
	23.200000000	     -12.127	    -145.032	      -7.891	    -132.026	      -7.894	    -132.065	     -23.313	      96.776
	23.400000000	     -12.086	    -151.781	      -8.051	    -141.619	      -8.054	    -141.657	     -22.051	      89.722
	23.600000000	     -12.252	    -157.817	      -8.289	    -150.991	      -8.292	    -151.031	     -20.902	      79.659
	23.800000000	     -12.415	    -158.879	      -8.520	    -159.135	      -8.524	    -159.169	     -20.757	      67.849
	24.000000000	     -11.927	    -160.855	      -8.507	    -167.352	      -8.511	    -167.384	     -20.304	      58.951
	24.200000000	     -11.400	    -164.995	      -8.496	    -176.784	      -8.504	    -176.778	     -20.364	      54.888
	24.400000000	     -11.016	    -169.267	      -8.558	     173.620	      -8.566	     173.627	     -19.398	      50.257
	24.600000000	     -10.733	    -173.884	      -8.645	     163.978	      -8.653	     163.976	     -18.633	      47.193
	24.800000000	     -10.478	    -176.896	      -8.758	     154.246	      -8.766	     154.252	     -17.799	      43.061
	25.000000000	     -10.272	     178.881	      -8.900	     144.455	      -8.908	     144.460	     -17.047	      39.344