!File name = SN03_25C_5V_Phase17.s2p
!Date = 2/3/2014
!Time = 2:35 PM
!Test duration(min) = 0.07
!Test = SPars
!MPTS version = 7.120.8
!Comments = 
!set_LD1(binary) = 17
!set_LD2(binary) = 524270
!test = SPars
!date_code = 20140203
!file_name = SN03_25C_5V_Phase17.s2p
!VREF(V) = 5.000
!VREF(mA) = 0.001
# GHz   S   DB   R   50
!%	Freq(GHz)	     S11(dB)	    S11(deg)	     S21(dB)	    S21(deg)	     S12(dB)	    S12(deg)	     S22(dB)	    S22(deg)
	5.000000000	      -4.772	     166.149	     -30.853	      84.931	     -30.867	      84.906	      -5.236	    -122.722
	5.200000000	      -4.765	     154.452	     -29.262	      74.256	     -29.277	      74.217	      -5.738	    -126.982
	5.400000000	      -4.745	     142.297	     -27.698	      63.107	     -27.711	      63.085	      -6.284	    -131.307
	5.600000000	      -4.724	     129.776	     -26.225	      51.171	     -26.238	      51.164	      -6.904	    -135.945
	5.800000000	      -4.733	     116.941	     -24.798	      38.552	     -24.810	      38.532	      -7.545	    -140.669
	6.000000000	      -4.801	     103.955	     -23.478	      25.142	     -23.490	      25.088	      -8.227	    -145.525
	6.200000000	      -4.955	      90.914	     -22.283	      11.174	     -22.292	      11.144	      -8.930	    -150.663
	6.400000000	      -5.248	      77.923	     -21.204	      -3.259	     -21.213	      -3.265	      -9.627	    -155.865
	6.600000000	      -5.700	      65.212	     -20.245	     -18.050	     -20.256	     -18.069	     -10.321	    -161.019
	6.800000000	      -6.342	      52.900	     -19.422	     -33.269	     -19.448	     -33.164	     -10.942	    -166.418
	7.000000000	      -7.198	      41.488	     -18.765	     -48.432	     -18.789	     -48.331	     -11.509	    -171.769
	7.200000000	      -8.266	      31.262	     -18.249	     -63.511	     -18.275	     -63.399	     -12.028	    -177.420
	7.400000000	      -9.567	      22.708	     -17.872	     -78.302	     -17.898	     -78.191	     -12.438	     176.939
	7.600000000	     -10.996	      16.542	     -17.608	     -92.691	     -17.634	     -92.593	     -12.799	     171.040
	7.800000000	     -12.574	      13.300	     -17.437	    -106.587	     -17.463	    -106.497	     -13.127	     165.071
	8.000000000	     -13.997	      13.565	     -17.339	    -119.970	     -17.367	    -119.860	     -13.397	     158.937
	8.200000000	     -15.108	      17.120	     -17.291	    -132.813	     -17.312	    -132.722	     -13.706	     153.010
	8.400000000	     -15.605	      22.525	     -17.275	    -145.180	     -17.296	    -145.073	     -14.008	     147.504
	8.600000000	     -15.502	      27.305	     -17.278	    -157.095	     -17.297	    -156.995	     -14.391	     141.977
	8.800000000	     -14.987	      29.699	     -17.295	    -168.646	     -17.315	    -168.560	     -14.827	     136.520
	9.000000000	     -14.322	      29.720	     -17.318	    -179.845	     -17.336	    -179.766	     -15.357	     131.139
	9.200000000	     -13.654	      27.604	     -17.338	     169.204	     -17.356	     169.300	     -15.950	     125.552
	9.400000000	     -13.051	      24.451	     -17.360	     158.516	     -17.378	     158.614	     -16.605	     119.422
	9.600000000	     -12.492	      20.096	     -17.377	     147.979	     -17.397	     148.104	     -17.459	     112.855
	9.800000000	     -12.049	      15.500	     -17.390	     137.647	     -17.411	     137.763	     -18.316	     104.911
	10.000000000	     -11.649	      10.468	     -17.401	     127.437	     -17.423	     127.568	     -19.224	      96.986
	10.200000000	     -11.308	       5.349	     -17.415	     117.345	     -17.436	     117.464	     -20.143	      86.754
	10.400000000	     -11.063	       0.142	     -17.419	     107.338	     -17.442	     107.451	     -20.849	      75.329
	10.600000000	     -10.832	      -5.089	     -17.431	      97.428	     -17.451	      97.548	     -21.609	      62.201
	10.800000000	     -10.663	     -10.044	     -17.449	      87.666	     -17.462	      87.677	     -21.941	      47.908
	11.000000000	     -10.536	     -14.592	     -17.463	      77.914	     -17.477	      77.937	     -21.859	      35.160
	11.200000000	     -10.472	     -19.118	     -17.470	      68.211	     -17.482	      68.232	     -21.574	      23.020
	11.400000000	     -10.449	     -23.160	     -17.481	      58.562	     -17.494	      58.580	     -21.041	      12.648
	11.600000000	     -10.455	     -26.612	     -17.493	      48.962	     -17.506	      48.964	     -20.476	       4.339
	11.800000000	     -10.549	     -29.688	     -17.504	      39.379	     -17.518	      39.404	     -19.868	      -2.701
	12.000000000	     -10.645	     -32.438	     -17.520	      29.897	     -17.530	      29.920	     -19.350	      -7.578
	12.200000000	     -10.796	     -34.228	     -17.527	      20.457	     -17.531	      20.400	     -18.880	     -12.218
	12.400000000	     -11.016	     -35.783	     -17.541	      11.033	     -17.544	      10.995	     -18.392	     -15.227
	12.600000000	     -11.259	     -36.477	     -17.555	       1.702	     -17.558	       1.664	     -18.185	     -17.778
	12.800000000	     -11.569	     -36.550	     -17.562	      -7.535	     -17.567	      -7.580	     -17.928	     -20.057
	13.000000000	     -11.844	     -36.282	     -17.567	     -16.761	     -17.573	     -16.788	     -17.747	     -21.609
	13.200000000	     -12.090	     -35.125	     -17.570	     -25.904	     -17.575	     -25.942	     -17.609	     -23.345
	13.400000000	     -12.333	     -33.646	     -17.572	     -35.055	     -17.577	     -35.099	     -17.493	     -25.246
	13.600000000	     -12.541	     -32.064	     -17.574	     -44.105	     -17.580	     -44.174	     -17.361	     -26.701
	13.800000000	     -12.674	     -29.783	     -17.582	     -53.122	     -17.583	     -53.196	     -17.381	     -28.278
	14.000000000	     -12.782	     -27.855	     -17.582	     -62.108	     -17.588	     -62.183	     -17.360	     -30.161
	14.200000000	     -12.807	     -25.654	     -17.584	     -71.036	     -17.591	     -71.115	     -17.501	     -32.252
	14.400000000	     -12.795	     -23.627	     -17.588	     -79.970	     -17.592	     -80.014	     -17.549	     -35.047
	14.600000000	     -12.757	     -22.078	     -17.591	     -88.798	     -17.598	     -88.851	     -17.737	     -36.784
	14.800000000	     -12.668	     -20.935	     -17.598	     -97.596	     -17.601	     -97.660	     -17.948	     -38.082
	15.000000000	     -12.667	     -19.969	     -17.604	    -106.339	     -17.608	    -106.403	     -18.220	     -40.606
	15.200000000	     -12.643	     -19.851	     -17.606	    -115.064	     -17.613	    -115.121	     -18.508	     -42.734
	15.400000000	     -12.686	     -20.039	     -17.609	    -123.722	     -17.612	    -123.782	     -18.969	     -45.053
	15.600000000	     -12.727	     -20.764	     -17.604	    -132.445	     -17.616	    -132.433	     -19.445	     -46.734
	15.800000000	     -12.825	     -22.277	     -17.600	    -141.026	     -17.614	    -141.020	     -20.100	     -48.572
	16.000000000	     -12.988	     -24.244	     -17.597	    -149.596	     -17.609	    -149.596	     -20.784	     -49.697
	16.200000000	     -13.099	     -26.596	     -17.579	    -158.151	     -17.596	    -158.095	     -21.641	     -50.890
	16.400000000	     -13.307	     -29.583	     -17.558	    -166.720	     -17.575	    -166.680	     -22.621	     -52.210
	16.600000000	     -13.526	     -32.785	     -17.527	    -175.309	     -17.545	    -175.285	     -23.961	     -53.759
	16.800000000	     -13.605	     -36.398	     -17.496	     175.953	     -17.514	     175.993	     -25.482	     -56.025
	17.000000000	     -13.731	     -40.155	     -17.486	     167.094	     -17.502	     167.131	     -27.123	     -55.328
	17.200000000	     -13.794	     -44.189	     -17.508	     158.238	     -17.526	     158.274	     -28.321	     -55.159
	17.400000000	     -13.830	     -48.843	     -17.555	     149.596	     -17.572	     149.628	     -31.260	     -59.280
	17.600000000	     -13.751	     -52.550	     -17.567	     141.085	     -17.582	     141.115	     -34.770	     -60.754
	17.800000000	     -13.683	     -57.117	     -17.587	     132.455	     -17.603	     132.501	     -41.384	     -59.252
	18.000000000	     -13.534	     -60.473	     -17.612	     123.871	     -17.630	     123.898	     -48.921	      51.364
	18.200000000	     -13.395	     -64.235	     -17.640	     115.316	     -17.656	     115.365	     -39.077	      96.407
	18.400000000	     -13.181	     -67.486	     -17.671	     106.799	     -17.688	     106.849	     -33.744	      93.704
	18.600000000	     -12.988	     -70.306	     -17.698	      98.335	     -17.716	      98.370	     -30.795	      95.212
	18.800000000	     -12.860	     -72.660	     -17.728	      89.898	     -17.744	      89.942	     -28.403	      91.409
	19.000000000	     -12.724	     -74.902	     -17.750	      81.491	     -17.770	      81.528	     -26.746	      91.888
	19.200000000	     -12.643	     -76.669	     -17.772	      73.185	     -17.782	      73.187	     -25.690	      88.978
	19.400000000	     -12.451	     -78.162	     -17.775	      64.864	     -17.783	      64.882	     -24.608	      88.801
	19.600000000	     -12.323	     -81.459	     -17.723	      56.270	     -17.733	      56.301	     -23.161	      89.825
	19.800000000	     -12.740	     -81.941	     -17.800	      47.445	     -17.813	      47.471	     -21.568	      86.773
	20.000000000	     -12.768	     -81.559	     -17.837	      39.218	     -17.848	      39.263	     -20.969	      80.459
	20.200000000	     -12.744	     -82.208	     -17.842	      30.934	     -17.854	      30.964	     -20.203	      79.826
	20.400000000	     -12.749	     -83.101	     -17.824	      22.481	     -17.837	      22.494	     -19.469	      77.842
	20.600000000	     -12.969	     -86.838	     -17.826	      13.706	     -17.836	      13.713	     -18.810	      75.968
	20.800000000	     -13.594	     -88.131	     -17.874	       5.031	     -17.886	       5.026	     -18.216	      73.271
	21.000000000	     -14.084	     -88.737	     -17.914	      -3.456	     -17.926	      -3.468	     -17.784	      72.373
	21.200000000	     -14.678	     -89.249	     -17.940	     -12.001	     -17.950	     -11.980	     -17.179	      70.475
	21.400000000	     -15.354	     -89.520	     -17.964	     -20.544	     -17.975	     -20.524	     -16.783	      70.224
	21.600000000	     -15.994	     -90.421	     -17.986	     -29.194	     -17.997	     -29.168	     -16.387	      68.271
	21.800000000	     -16.627	     -90.901	     -18.019	     -37.876	     -18.029	     -37.862	     -16.051	      67.446
	22.000000000	     -17.339	     -91.472	     -18.051	     -46.582	     -18.063	     -46.568	     -15.683	      64.832
	22.200000000	     -17.814	     -91.230	     -18.085	     -55.345	     -18.097	     -55.307	     -15.455	      62.999
	22.400000000	     -18.269	     -92.869	     -18.118	     -64.216	     -18.131	     -64.198	     -15.197	      60.166
	22.600000000	     -18.657	     -94.101	     -18.167	     -73.174	     -18.177	     -73.159	     -15.135	      57.295
	22.800000000	     -18.883	     -96.195	     -18.223	     -82.321	     -18.235	     -82.295	     -15.012	      53.671
	23.000000000	     -18.813	     -99.468	     -18.332	     -91.615	     -18.345	     -91.604	     -14.977	      50.353
	23.200000000	     -18.643	    -101.240	     -18.473	    -100.751	     -18.483	    -100.726	     -14.707	      45.840
	23.400000000	     -18.269	    -105.723	     -18.654	    -110.110	     -18.669	    -110.065	     -14.579	      41.839
	23.600000000	     -18.018	    -108.909	     -18.989	    -119.048	     -19.003	    -119.009	     -14.299	      37.562
	23.800000000	     -17.098	    -107.586	     -19.292	    -125.781	     -19.306	    -125.704	     -14.096	      31.426
	24.000000000	     -15.777	    -110.446	     -19.160	    -132.851	     -19.172	    -132.793	     -13.669	      25.686
	24.200000000	     -14.582	    -116.128	     -19.066	    -141.969	     -19.078	    -141.930	     -13.714	      19.720
	24.400000000	     -13.531	    -122.017	     -19.092	    -151.381	     -19.106	    -151.340	     -13.392	      15.435
	24.600000000	     -12.669	    -128.098	     -19.169	    -160.824	     -19.186	    -160.782	     -13.195	      11.896
	24.800000000	     -11.686	    -133.297	     -19.292	    -170.305	     -19.304	    -170.258	     -12.861	       7.923
	25.000000000	     -10.955	    -139.722	     -19.441	    -179.736	     -19.456	    -179.686	     -12.594	       4.023