!File name = SN03_25C_5V_Phase22.s2p
!Date = 2/3/2014
!Time = 2:35 PM
!Test duration(min) = 0.07
!Test = SPars
!MPTS version = 7.120.8
!Comments = 
!set_LD1(binary) = 22
!set_LD2(binary) = 524265
!test = SPars
!date_code = 20140203
!file_name = SN03_25C_5V_Phase22.s2p
!VREF(V) = 5.000
!VREF(mA) = 0.003
# GHz   S   DB   R   50
!%	Freq(GHz)	     S11(dB)	    S11(deg)	     S21(dB)	    S21(deg)	     S12(dB)	    S12(deg)	     S22(dB)	    S22(deg)
	5.000000000	      -5.137	     170.742	     -31.999	      80.642	     -32.025	      80.623	      -5.240	    -122.651
	5.200000000	      -5.466	     159.478	     -30.571	      68.771	     -30.582	      68.784	      -5.742	    -126.883
	5.400000000	      -5.811	     147.815	     -29.199	      56.699	     -29.212	      56.683	      -6.284	    -131.161
	5.600000000	      -6.174	     135.884	     -27.941	      43.957	     -27.957	      43.912	      -6.897	    -135.753
	5.800000000	      -6.575	     123.784	     -26.756	      30.753	     -26.768	      30.743	      -7.527	    -140.440
	6.000000000	      -7.027	     111.799	     -25.685	      16.978	     -25.696	      16.951	      -8.190	    -145.275
	6.200000000	      -7.536	     100.047	     -24.751	       2.958	     -24.763	       2.912	      -8.871	    -150.436
	6.400000000	      -8.143	      88.746	     -23.944	     -11.213	     -23.954	     -11.242	      -9.541	    -155.726
	6.600000000	      -8.837	      78.155	     -23.228	     -25.421	     -23.245	     -25.429	     -10.212	    -161.057
	6.800000000	      -9.626	      68.285	     -22.614	     -39.855	     -22.647	     -39.683	     -10.820	    -166.722
	7.000000000	     -10.507	      59.602	     -22.127	     -53.968	     -22.157	     -53.843	     -11.390	    -172.375
	7.200000000	     -11.453	      52.147	     -21.735	     -67.915	     -21.765	     -67.785	     -11.929	    -178.339
	7.400000000	     -12.467	      46.152	     -21.429	     -81.586	     -21.459	     -81.460	     -12.380	     175.797
	7.600000000	     -13.420	      41.759	     -21.194	     -94.990	     -21.228	     -94.842	     -12.785	     169.769
	7.800000000	     -14.396	      39.113	     -21.028	    -108.015	     -21.058	    -107.861	     -13.161	     163.784
	8.000000000	     -15.158	      37.670	     -20.911	    -120.710	     -20.939	    -120.562	     -13.477	     157.752
	8.200000000	     -15.775	      37.325	     -20.824	    -133.042	     -20.850	    -132.914	     -13.822	     151.996
	8.400000000	     -16.164	      37.420	     -20.774	    -145.056	     -20.799	    -144.905	     -14.149	     146.714
	8.600000000	     -16.371	      37.442	     -20.738	    -156.772	     -20.765	    -156.642	     -14.549	     141.427
	8.800000000	     -16.405	      36.798	     -20.727	    -168.248	     -20.750	    -168.106	     -14.989	     136.219
	9.000000000	     -16.338	      35.548	     -20.725	    -179.449	     -20.747	    -179.318	     -15.520	     131.072
	9.200000000	     -16.218	      33.387	     -20.729	     169.560	     -20.751	     169.690	     -16.105	     125.722
	9.400000000	     -16.074	      31.065	     -20.741	     158.787	     -20.767	     158.929	     -16.744	     119.766
	9.600000000	     -15.870	      27.887	     -20.756	     148.138	     -20.781	     148.289	     -17.576	     113.365
	9.800000000	     -15.717	      24.874	     -20.771	     137.619	     -20.793	     137.810	     -18.413	     105.567
	10.000000000	     -15.521	      21.554	     -20.798	     127.242	     -20.823	     127.410	     -19.294	      97.719
	10.200000000	     -15.313	      18.273	     -20.826	     116.977	     -20.847	     117.136	     -20.189	      87.580
	10.400000000	     -15.164	      15.116	     -20.856	     106.821	     -20.879	     106.929	     -20.859	      76.160
	10.600000000	     -14.952	      11.818	     -20.886	      96.712	     -20.913	      96.853	     -21.587	      63.041
	10.800000000	     -14.741	       8.947	     -20.944	      86.789	     -20.955	      86.801	     -21.887	      48.734
	11.000000000	     -14.502	       6.584	     -20.995	      76.893	     -21.007	      76.895	     -21.765	      35.893
	11.200000000	     -14.294	       4.276	     -21.037	      67.037	     -21.051	      67.044	     -21.442	      23.651
	11.400000000	     -14.047	       2.455	     -21.091	      57.231	     -21.103	      57.222	     -20.874	      13.141
	11.600000000	     -13.737	       1.096	     -21.146	      47.453	     -21.158	      47.461	     -20.274	       4.687
	11.800000000	     -13.460	       0.194	     -21.206	      37.791	     -21.219	      37.777	     -19.636	      -2.552
	12.000000000	     -13.126	      -0.902	     -21.271	      28.183	     -21.282	      28.179	     -19.098	      -7.692
	12.200000000	     -12.739	      -1.228	     -21.332	      18.664	     -21.330	      18.550	     -18.613	     -12.628
	12.400000000	     -12.399	      -1.700	     -21.400	       9.187	     -21.400	       9.090	     -18.127	     -15.964
	12.600000000	     -12.018	      -1.894	     -21.471	      -0.151	     -21.471	      -0.243	     -17.925	     -18.939
	12.800000000	     -11.672	      -1.917	     -21.532	      -9.355	     -21.534	      -9.431	     -17.695	     -21.620
	13.000000000	     -11.322	      -2.343	     -21.590	     -18.480	     -21.590	     -18.571	     -17.558	     -23.604
	13.200000000	     -10.947	      -2.669	     -21.638	     -27.488	     -21.641	     -27.587	     -17.478	     -25.729
	13.400000000	     -10.622	      -3.096	     -21.683	     -36.468	     -21.682	     -36.595	     -17.440	     -27.893
	13.600000000	     -10.336	      -3.821	     -21.719	     -45.354	     -21.720	     -45.462	     -17.401	     -29.518
	13.800000000	     -10.044	      -4.388	     -21.761	     -54.157	     -21.755	     -54.271	     -17.517	     -31.194
	14.000000000	      -9.814	      -5.308	     -21.782	     -62.918	     -21.781	     -63.030	     -17.601	     -32.973
	14.200000000	      -9.585	      -6.203	     -21.803	     -71.584	     -21.799	     -71.730	     -17.847	     -34.894
	14.400000000	      -9.394	      -7.217	     -21.819	     -80.262	     -21.816	     -80.385	     -17.986	     -37.328
	14.600000000	      -9.246	      -8.483	     -21.830	     -88.863	     -21.832	     -88.989	     -18.270	     -38.540
	14.800000000	      -9.114	      -9.981	     -21.841	     -97.432	     -21.839	     -97.518	     -18.561	     -39.139
	15.000000000	      -9.076	     -11.415	     -21.844	    -105.915	     -21.844	    -106.022	     -18.891	     -40.929
	15.200000000	      -9.062	     -13.376	     -21.842	    -114.411	     -21.845	    -114.509	     -19.213	     -42.200
	15.400000000	      -9.110	     -15.457	     -21.834	    -122.828	     -21.835	    -122.945	     -19.697	     -43.603
	15.600000000	      -9.183	     -17.875	     -21.821	    -131.344	     -21.830	    -131.368	     -20.161	     -44.260
	15.800000000	      -9.308	     -20.741	     -21.805	    -139.715	     -21.815	    -139.719	     -20.786	     -45.019
	16.000000000	      -9.490	     -23.933	     -21.785	    -148.047	     -21.798	    -148.062	     -21.394	     -45.000
	16.200000000	      -9.641	     -27.353	     -21.753	    -156.355	     -21.767	    -156.325	     -22.151	     -44.957
	16.400000000	      -9.865	     -31.160	     -21.706	    -164.732	     -21.720	    -164.719	     -22.988	     -45.010
	16.600000000	     -10.102	     -35.074	     -21.647	    -173.148	     -21.660	    -173.130	     -24.146	     -45.078
	16.800000000	     -10.247	     -39.170	     -21.580	     178.223	     -21.594	     178.240	     -25.405	     -45.767
	17.000000000	     -10.423	     -43.304	     -21.540	     169.333	     -21.559	     169.373	     -26.629	     -43.842
	17.200000000	     -10.554	     -47.509	     -21.559	     160.430	     -21.575	     160.471	     -27.418	     -43.560
	17.400000000	     -10.663	     -52.074	     -21.615	     151.860	     -21.629	     151.885	     -29.758	     -45.151
	17.600000000	     -10.698	     -55.866	     -21.620	     143.508	     -21.636	     143.531	     -32.172	     -44.150
	17.800000000	     -10.736	     -60.165	     -21.638	     134.980	     -21.652	     135.007	     -35.846	     -39.032
	18.000000000	     -10.723	     -63.519	     -21.660	     126.507	     -21.674	     126.509	     -40.365	      -9.136
	18.200000000	     -10.714	     -67.037	     -21.683	     118.085	     -21.697	     118.081	     -42.716	      47.895
	18.400000000	     -10.643	     -70.079	     -21.710	     109.675	     -21.726	     109.709	     -36.933	      76.364
	18.600000000	     -10.587	     -72.695	     -21.736	     101.343	     -21.748	     101.343	     -33.401	      88.716
	18.800000000	     -10.568	     -74.860	     -21.758	      93.028	     -21.770	      93.060	     -30.390	      88.778
	19.000000000	     -10.527	     -76.870	     -21.774	      84.743	     -21.789	      84.772	     -28.338	      92.361
	19.200000000	     -10.517	     -78.403	     -21.784	      76.452	     -21.797	      76.495	     -27.000	      90.738
	19.400000000	     -10.386	     -79.735	     -21.779	      68.242	     -21.791	      68.289	     -25.635	      91.760
	19.600000000	     -10.301	     -82.506	     -21.727	      59.738	     -21.741	      59.812	     -23.877	      93.457
	19.800000000	     -10.652	     -82.883	     -21.798	      50.989	     -21.811	      51.083	     -22.044	      90.190
	20.000000000	     -10.612	     -82.506	     -21.835	      42.858	     -21.850	      42.921	     -21.325	      83.613
	20.200000000	     -10.510	     -83.133	     -21.840	      34.634	     -21.856	      34.704	     -20.417	      82.838
	20.400000000	     -10.390	     -84.181	     -21.831	      26.257	     -21.845	      26.303	     -19.582	      80.534
	20.600000000	     -10.437	     -87.742	     -21.833	      17.522	     -21.851	      17.585	     -18.856	      78.333
	20.800000000	     -10.782	     -89.453	     -21.901	       8.913	     -21.912	       8.961	     -18.208	      75.323
	21.000000000	     -10.987	     -90.762	     -21.958	       0.534	     -21.975	       0.574	     -17.729	      74.067
	21.200000000	     -11.232	     -92.326	     -22.006	      -7.843	     -22.024	      -7.796	     -17.103	      71.804
	21.400000000	     -11.500	     -94.207	     -22.054	     -16.188	     -22.067	     -16.150	     -16.691	      71.269
	21.600000000	     -11.718	     -96.906	     -22.093	     -24.640	     -22.109	     -24.581	     -16.292	      69.060
	21.800000000	     -11.923	     -99.875	     -22.148	     -33.125	     -22.165	     -33.068	     -15.961	      68.016
	22.000000000	     -12.160	    -103.420	     -22.196	     -41.591	     -22.214	     -41.552	     -15.601	      65.234
	22.200000000	     -12.292	    -106.861	     -22.246	     -50.125	     -22.264	     -50.059	     -15.387	      63.255
	22.400000000	     -12.378	    -111.730	     -22.302	     -58.854	     -22.312	     -58.788	     -15.146	      60.346
	22.600000000	     -12.442	    -116.745	     -22.372	     -67.701	     -22.390	     -67.651	     -15.098	      57.411
	22.800000000	     -12.431	    -122.312	     -22.483	     -76.788	     -22.497	     -76.741	     -14.991	      53.745
	23.000000000	     -12.277	    -128.215	     -22.687	     -86.006	     -22.705	     -85.969	     -14.973	      50.403
	23.200000000	     -12.171	    -133.466	     -22.937	     -94.715	     -22.953	     -94.656	     -14.723	      45.872
	23.400000000	     -11.908	    -139.480	     -23.258	    -103.573	     -23.276	    -103.504	     -14.617	      41.866
	23.600000000	     -11.772	    -145.210	     -23.805	    -111.268	     -23.821	    -111.163	     -14.364	      37.611
	23.800000000	     -11.601	    -147.577	     -24.127	    -115.135	     -24.143	    -115.039	     -14.193	      31.619
	24.000000000	     -11.072	    -150.746	     -23.701	    -121.037	     -23.722	    -120.975	     -13.770	      26.097
	24.200000000	     -10.463	    -155.264	     -23.506	    -130.278	     -23.518	    -130.258	     -13.812	      20.270
	24.400000000	      -9.934	    -159.995	     -23.540	    -139.555	     -23.552	    -139.541	     -13.487	      16.070
	24.600000000	      -9.495	    -165.214	     -23.639	    -148.535	     -23.647	    -148.544	     -13.287	      12.654
	24.800000000	      -9.057	    -169.342	     -23.763	    -157.416	     -23.777	    -157.413	     -12.946	       8.800
	25.000000000	      -8.699	    -174.686	     -23.923	    -166.172	     -23.936	    -166.171	     -12.669	       5.027