!File name = SN03_25C_5V_Phase1.s2p
!Date = 2/3/2014
!Time = 2:34 PM
!Test duration(min) = 0.07
!Test = SPars
!MPTS version = 7.120.8
!Comments = 
!set_LD1(binary) = 1
!set_LD2(binary) = 524286
!test = SPars
!date_code = 20140203
!file_name = SN03_25C_5V_Phase1.s2p
!VREF(V) = 5.000
!VREF(mA) = 0.001
# GHz   S   DB   R   50
!%	Freq(GHz)	     S11(dB)	    S11(deg)	     S21(dB)	    S21(deg)	     S12(dB)	    S12(deg)	     S22(dB)	    S22(deg)
	5.000000000	      -4.725	     165.879	     -21.894	      92.761	     -21.906	      92.748	      -1.780	    -132.860
	5.200000000	      -4.706	     154.068	     -20.038	      82.037	     -20.045	      82.039	      -2.127	    -140.605
	5.400000000	      -4.675	     141.744	     -18.202	      70.565	     -18.212	      70.574	      -2.560	    -148.999
	5.600000000	      -4.644	     128.984	     -16.438	      58.190	     -16.449	      58.211	      -3.116	    -158.331
	5.800000000	      -4.650	     115.837	     -14.743	      44.898	     -14.756	      44.900	      -3.795	    -168.381
	6.000000000	      -4.726	     102.461	     -13.162	      30.682	     -13.176	      30.714	      -4.637	    -179.150
	6.200000000	      -4.905	      88.950	     -11.718	      15.736	     -11.733	      15.757	      -5.667	     169.452
	6.400000000	      -5.250	      75.420	     -10.422	       0.163	     -10.438	       0.197	      -6.912	     157.989
	6.600000000	      -5.787	      62.159	      -9.288	     -15.893	      -9.303	     -15.866	      -8.417	     146.926
	6.800000000	      -6.558	      49.325	      -8.341	     -32.227	      -8.355	     -32.215	     -10.131	     137.159
	7.000000000	      -7.601	      37.508	      -7.577	     -48.590	      -7.587	     -48.593	     -12.062	     129.942
	7.200000000	      -8.923	      27.151	      -6.985	     -64.768	      -6.994	     -64.774	     -13.978	     126.206
	7.400000000	     -10.561	      19.000	      -6.550	     -80.569	      -6.560	     -80.577	     -15.515	     127.187
	7.600000000	     -12.403	      14.387	      -6.246	     -95.843	      -6.256	     -95.853	     -16.257	     130.131
	7.800000000	     -14.388	      14.587	      -6.047	    -110.499	      -6.057	    -110.503	     -16.225	     131.569
	8.000000000	     -15.918	      20.698	      -5.926	    -124.514	      -5.937	    -124.515	     -15.794	     129.536
	8.200000000	     -16.503	      30.436	      -5.856	    -137.906	      -5.861	    -137.951	     -15.392	     124.286
	8.400000000	     -15.996	      38.449	      -5.819	    -150.715	      -5.825	    -150.758	     -15.165	     117.318
	8.600000000	     -15.008	      41.890	      -5.800	    -163.035	      -5.804	    -163.067	     -15.174	     108.438
	8.800000000	     -13.962	      41.310	      -5.789	    -174.935	      -5.794	    -174.959	     -15.389	      98.402
	9.000000000	     -13.055	      38.299	      -5.780	     173.524	      -5.784	     173.497	     -15.826	      86.909
	9.200000000	     -12.305	      33.729	      -5.770	     162.271	      -5.772	     162.245	     -16.382	      74.029
	9.400000000	     -11.692	      28.647	      -5.760	     151.266	      -5.762	     151.236	     -16.975	      59.475
	9.600000000	     -11.169	      22.908	      -5.746	     140.445	      -5.748	     140.419	     -17.553	      42.512
	9.800000000	     -10.747	      17.184	      -5.734	     129.811	      -5.738	     129.799	     -17.814	      24.569
	10.000000000	     -10.375	      11.195	      -5.719	     119.365	      -5.722	     119.352	     -17.924	       6.178
	10.200000000	     -10.045	       5.206	      -5.706	     109.066	      -5.708	     109.033	     -17.628	     -11.376
	10.400000000	      -9.798	      -0.884	      -5.684	      98.881	      -5.685	      98.848	     -17.231	     -26.996
	10.600000000	      -9.564	      -6.977	      -5.664	      88.820	      -5.667	      88.781	     -16.703	     -41.820
	10.800000000	      -9.388	     -12.992	      -5.638	      78.839	      -5.646	      78.858	     -16.217	     -54.415
	11.000000000	      -9.278	     -18.783	      -5.605	      68.974	      -5.613	      68.992	     -15.967	     -66.053
	11.200000000	      -9.250	     -24.669	      -5.563	      59.133	      -5.572	      59.154	     -15.824	     -76.949
	11.400000000	      -9.302	     -30.248	      -5.516	      49.312	      -5.526	      49.346	     -15.892	     -87.430
	11.600000000	      -9.443	     -35.393	      -5.464	      39.520	      -5.475	      39.554	     -16.207	     -97.876
	11.800000000	      -9.737	     -40.249	      -5.410	      29.699	      -5.422	      29.736	     -16.772	    -108.446
	12.000000000	     -10.126	     -44.653	      -5.356	      19.840	      -5.367	      19.882	     -17.759	    -120.023
	12.200000000	     -10.677	     -47.885	      -5.304	       9.963	      -5.310	       9.966	     -19.071	    -133.062
	12.400000000	     -11.413	     -50.380	      -5.264	       0.012	      -5.269	       0.019	     -21.070	    -148.832
	12.600000000	     -12.278	     -50.977	      -5.239	      -9.936	      -5.244	      -9.936	     -23.366	    -172.623
	12.800000000	     -13.292	     -49.554	      -5.229	     -19.876	      -5.234	     -19.877	     -25.562	     152.964
	13.000000000	     -14.207	     -45.808	      -5.236	     -29.770	      -5.242	     -29.766	     -25.350	     109.457
	13.200000000	     -14.889	     -39.226	      -5.262	     -39.590	      -5.267	     -39.589	     -23.097	      75.944
	13.400000000	     -15.213	     -31.316	      -5.301	     -49.327	      -5.308	     -49.327	     -20.859	      53.188
	13.600000000	     -15.093	     -23.664	      -5.354	     -58.947	      -5.361	     -58.936	     -18.958	      36.045
	13.800000000	     -14.572	     -17.005	      -5.418	     -68.422	      -5.425	     -68.413	     -17.613	      22.737
	14.000000000	     -13.928	     -12.813	      -5.484	     -77.790	      -5.492	     -77.777	     -16.661	      10.325
	14.200000000	     -13.213	     -10.280	      -5.553	     -87.013	      -5.562	     -87.007	     -16.115	      -0.947
	14.400000000	     -12.564	      -9.180	      -5.623	     -96.150	      -5.632	     -96.141	     -15.777	     -12.679
	14.600000000	     -12.023	      -9.543	      -5.690	    -105.134	      -5.700	    -105.131	     -15.702	     -23.114
	14.800000000	     -11.574	     -10.824	      -5.751	    -114.019	      -5.759	    -114.016	     -15.849	     -33.164
	15.000000000	     -11.321	     -12.333	      -5.800	    -122.834	      -5.808	    -122.831	     -16.268	     -44.389
	15.200000000	     -11.164	     -14.654	      -5.836	    -131.621	      -5.844	    -131.617	     -16.903	     -55.602
	15.400000000	     -11.145	     -17.130	      -5.860	    -140.375	      -5.868	    -140.369	     -17.889	     -68.057
	15.600000000	     -11.197	     -19.961	      -5.879	    -149.156	      -5.886	    -149.160	     -19.145	     -81.540
	15.800000000	     -11.346	     -23.222	      -5.890	    -157.951	      -5.898	    -157.946	     -20.784	     -98.259
	16.000000000	     -11.593	     -26.735	      -5.900	    -166.752	      -5.908	    -166.749	     -22.570	    -119.128
	16.200000000	     -11.818	     -30.394	      -5.905	    -175.560	      -5.911	    -175.571	     -23.894	    -147.853
	16.400000000	     -12.140	     -34.517	      -5.905	     175.593	      -5.911	     175.575	     -23.749	     179.691
	16.600000000	     -12.486	     -38.635	      -5.906	     166.731	      -5.911	     166.707	     -22.067	     151.909
	16.800000000	     -12.706	     -42.862	      -5.911	     157.830	      -5.917	     157.810	     -20.029	     132.146
	17.000000000	     -12.961	     -47.035	      -5.917	     148.902	      -5.922	     148.877	     -18.354	     115.900
	17.200000000	     -13.139	     -51.382	      -5.927	     139.963	      -5.932	     139.951	     -17.113	     102.564
	17.400000000	     -13.227	     -56.409	      -5.949	     131.051	      -5.956	     131.043	     -15.899	      92.710
	17.600000000	     -13.266	     -60.559	      -5.960	     122.194	      -5.966	     122.185	     -14.943	      83.135
	17.800000000	     -13.287	     -65.424	      -5.976	     113.270	      -5.983	     113.265	     -14.115	      74.062
	18.000000000	     -13.257	     -69.127	      -6.000	     104.388	      -6.007	     104.391	     -13.370	      65.206
	18.200000000	     -13.259	     -73.190	      -6.021	      95.540	      -6.026	      95.541	     -12.864	      56.970
	18.400000000	     -13.201	     -76.688	      -6.044	      86.725	      -6.050	      86.725	     -12.368	      48.493
	18.600000000	     -13.210	     -79.606	      -6.060	      77.940	      -6.067	      77.939	     -12.073	      40.343
	18.800000000	     -13.300	     -81.967	      -6.077	      69.185	      -6.083	      69.189	     -11.785	      31.925
	19.000000000	     -13.408	     -83.941	      -6.083	      60.426	      -6.089	      60.439	     -11.728	      23.714
	19.200000000	     -13.580	     -85.102	      -6.086	      51.742	      -6.089	      51.721	     -11.722	      14.892
	19.400000000	     -13.602	     -85.731	      -6.077	      43.065	      -6.079	      43.037	     -11.907	       6.479
	19.600000000	     -13.768	     -88.584	      -5.989	      34.233	      -5.991	      34.195	     -12.105	      -1.642
	19.800000000	     -14.604	     -86.424	      -6.019	      24.779	      -6.019	      24.743	     -12.519	     -10.667
	20.000000000	     -14.790	     -82.877	      -6.047	      15.921	      -6.047	      15.885	     -13.100	     -19.755
	20.200000000	     -14.812	     -80.293	      -6.043	       7.047	      -6.044	       7.018	     -14.054	     -28.022
	20.400000000	     -14.775	     -77.742	      -6.016	      -1.965	      -6.018	      -1.995	     -15.166	     -35.845
	20.600000000	     -14.880	     -78.130	      -6.009	     -11.325	      -6.010	     -11.365	     -16.334	     -43.334
	20.800000000	     -15.225	     -75.527	      -6.052	     -20.606	      -6.053	     -20.636	     -17.705	     -52.432
	21.000000000	     -15.222	     -72.872	      -6.087	     -29.766	      -6.089	     -29.793	     -19.706	     -63.939
	21.200000000	     -15.158	     -70.881	      -6.118	     -38.957	      -6.119	     -38.992	     -22.304	     -75.258
	21.400000000	     -15.056	     -69.991	      -6.153	     -48.179	      -6.155	     -48.219	     -25.573	     -95.337
	21.600000000	     -14.927	     -71.132	      -6.195	     -57.465	      -6.195	     -57.505	     -28.869	    -125.190
	21.800000000	     -14.810	     -73.350	      -6.246	     -66.776	      -6.248	     -66.817	     -29.351	    -171.698
	22.000000000	     -14.838	     -76.448	      -6.302	     -76.083	      -6.304	     -76.126	     -27.531	     154.095
	22.200000000	     -14.782	     -80.265	      -6.366	     -85.409	      -6.369	     -85.442	     -24.869	     134.663
	22.400000000	     -14.861	     -85.911	      -6.434	     -94.750	      -6.435	     -94.777	     -23.024	     120.712
	22.600000000	     -15.008	     -91.789	      -6.502	    -104.076	      -6.504	    -104.101	     -21.768	     111.563
	22.800000000	     -15.163	     -98.526	      -6.565	    -113.496	      -6.568	    -113.519	     -20.843	     102.336
	23.000000000	     -15.249	    -106.038	      -6.641	    -123.069	      -6.644	    -123.094	     -20.036	      95.381
	23.200000000	     -15.395	    -112.219	      -6.749	    -132.673	      -6.751	    -132.705	     -19.211	      84.867
	23.400000000	     -15.497	    -119.535	      -6.879	    -142.316	      -6.882	    -142.353	     -18.547	      76.327
	23.600000000	     -15.806	    -124.839	      -7.080	    -151.834	      -7.082	    -151.874	     -17.881	      66.142
	23.800000000	     -15.561	    -123.839	      -7.285	    -160.330	      -7.288	    -160.361	     -17.855	      53.655
	24.000000000	     -14.627	    -127.019	      -7.284	    -168.791	      -7.287	    -168.829	     -17.709	      43.717
	24.200000000	     -13.881	    -132.765	      -7.271	    -178.314	      -7.277	    -178.307	     -18.107	      36.775
	24.400000000	     -13.308	    -138.137	      -7.313	     171.960	      -7.319	     171.962	     -17.744	      31.284
	24.600000000	     -12.874	    -143.351	      -7.380	     162.106	      -7.387	     162.114	     -17.630	      27.384
	24.800000000	     -12.312	    -146.753	      -7.476	     152.129	      -7.482	     152.136	     -17.428	      23.513
	25.000000000	     -11.895	    -151.262	      -7.599	     142.057	      -7.605	     142.065	     -17.280	      20.778