!File name = SN03_25C_5V_Phase5.s2p
!Date = 2/3/2014
!Time = 2:34 PM
!Test duration(min) = 0.07
!Test = SPars
!MPTS version = 7.120.8
!Comments = 
!set_LD1(binary) = 5
!set_LD2(binary) = 524282
!test = SPars
!date_code = 20140203
!file_name = SN03_25C_5V_Phase5.s2p
!VREF(V) = 5.000
!VREF(mA) = 0.002
# GHz   S   DB   R   50
!%	Freq(GHz)	     S11(dB)	    S11(deg)	     S21(dB)	    S21(deg)	     S12(dB)	    S12(deg)	     S22(dB)	    S22(deg)
	5.000000000	      -5.647	     164.515	     -23.219	      91.364	     -23.233	      91.363	      -1.831	    -132.590
	5.200000000	      -5.725	     152.883	     -21.444	      79.645	     -21.453	      79.628	      -2.193	    -140.171
	5.400000000	      -5.798	     140.871	     -19.721	      67.199	     -19.731	      67.214	      -2.642	    -148.298
	5.600000000	      -5.876	     128.596	     -18.099	      53.943	     -18.107	      53.946	      -3.212	    -157.228
	5.800000000	      -5.993	     116.180	     -16.572	      39.896	     -16.582	      39.897	      -3.893	    -166.673
	6.000000000	      -6.173	     103.876	     -15.183	      25.126	     -15.196	      25.145	      -4.711	    -176.592
	6.200000000	      -6.434	      91.826	     -13.954	       9.878	     -13.966	       9.892	      -5.667	     173.136
	6.400000000	      -6.817	      80.232	     -12.880	      -5.670	     -12.892	      -5.649	      -6.751	     163.014
	6.600000000	      -7.319	      69.365	     -11.958	     -21.367	     -11.972	     -21.349	      -7.962	     153.315
	6.800000000	      -7.941	      59.291	     -11.197	     -37.069	     -11.212	     -37.041	      -9.214	     144.459
	7.000000000	      -8.675	      50.459	     -10.580	     -52.546	     -10.595	     -52.525	     -10.496	     136.854
	7.200000000	      -9.485	      42.923	     -10.092	     -67.713	     -10.106	     -67.693	     -11.695	     130.328
	7.400000000	     -10.363	      36.899	      -9.713	     -82.487	      -9.727	     -82.471	     -12.741	     125.395
	7.600000000	     -11.175	      32.546	      -9.423	     -96.811	      -9.438	     -96.792	     -13.560	     121.043
	7.800000000	     -11.966	      29.798	      -9.208	    -110.650	      -9.224	    -110.630	     -14.163	     116.978
	8.000000000	     -12.533	      28.188	      -9.049	    -124.025	      -9.065	    -124.001	     -14.557	     112.515
	8.200000000	     -12.922	      27.255	      -8.930	    -136.954	      -8.937	    -136.977	     -14.881	     107.140
	8.400000000	     -13.097	      26.422	      -8.841	    -149.469	      -8.849	    -149.482	     -15.226	     101.228
	8.600000000	     -13.120	      25.186	      -8.774	    -161.612	      -8.780	    -161.636	     -15.632	      93.812
	8.800000000	     -13.026	      23.196	      -8.721	    -173.454	      -8.727	    -173.480	     -16.116	      85.335
	9.000000000	     -12.885	      20.577	      -8.681	     174.991	      -8.686	     174.966	     -16.729	      75.258
	9.200000000	     -12.723	      17.237	      -8.647	     163.665	      -8.652	     163.642	     -17.369	      63.703
	9.400000000	     -12.576	      13.782	      -8.623	     152.558	      -8.628	     152.545	     -17.980	      50.431
	9.600000000	     -12.398	       9.820	      -8.603	     141.622	      -8.608	     141.608	     -18.501	      34.683
	9.800000000	     -12.269	       5.940	      -8.590	     130.868	      -8.596	     130.865	     -18.658	      18.361
	10.000000000	     -12.117	       1.863	      -8.582	     120.289	      -8.588	     120.286	     -18.686	       1.804
	10.200000000	     -11.964	      -2.169	      -8.580	     109.851	      -8.586	     109.845	     -18.315	     -13.682
	10.400000000	     -11.864	      -6.309	      -8.575	      99.533	      -8.580	      99.523	     -17.866	     -27.182
	10.600000000	     -11.728	     -10.428	      -8.580	      89.350	      -8.584	      89.337	     -17.304	     -40.074
	10.800000000	     -11.626	     -14.371	      -8.581	      79.254	      -8.593	      79.297	     -16.781	     -50.742
	11.000000000	     -11.554	     -17.992	      -8.582	      69.292	      -8.595	      69.340	     -16.483	     -60.397
	11.200000000	     -11.533	     -21.659	      -8.580	      59.387	      -8.593	      59.429	     -16.261	     -69.283
	11.400000000	     -11.548	     -24.883	      -8.579	      49.538	      -8.593	      49.592	     -16.209	     -77.510
	11.600000000	     -11.598	     -27.491	      -8.577	      39.756	      -8.591	      39.800	     -16.362	     -85.320
	11.800000000	     -11.743	     -29.641	      -8.575	      29.994	      -8.591	      30.043	     -16.686	     -92.709
	12.000000000	     -11.887	     -31.337	      -8.573	      20.268	      -8.587	      20.316	     -17.330	    -100.053
	12.200000000	     -12.073	     -31.745	      -8.573	      10.571	      -8.582	      10.583	     -18.162	    -107.371
	12.400000000	     -12.308	     -31.690	      -8.580	       0.882	      -8.589	       0.895	     -19.436	    -114.104
	12.600000000	     -12.493	     -30.434	      -8.595	      -8.755	      -8.604	      -8.748	     -21.104	    -122.720
	12.800000000	     -12.665	     -28.354	      -8.615	     -18.333	      -8.625	     -18.321	     -23.305	    -130.883
	13.000000000	     -12.692	     -26.103	      -8.642	     -27.840	      -8.651	     -27.825	     -26.481	    -141.240
	13.200000000	     -12.578	     -23.401	      -8.676	     -37.251	      -8.685	     -37.240	     -31.153	    -155.924
	13.400000000	     -12.398	     -21.030	      -8.713	     -46.602	      -8.721	     -46.587	     -38.964	     168.880
	13.600000000	     -12.156	     -19.308	      -8.751	     -55.856	      -8.761	     -55.847	     -37.630	      65.308
	13.800000000	     -11.842	     -17.764	      -8.794	     -65.012	      -8.802	     -65.007	     -31.406	      41.243
	14.000000000	     -11.554	     -17.177	      -8.834	     -74.109	      -8.842	     -74.106	     -28.190	      28.848
	14.200000000	     -11.249	     -16.933	      -8.873	     -83.113	      -8.882	     -83.114	     -26.493	      21.663
	14.400000000	     -10.985	     -17.197	      -8.910	     -92.081	      -8.919	     -92.078	     -25.533	      12.889
	14.600000000	     -10.775	     -18.144	      -8.945	    -100.955	      -8.955	    -100.949	     -24.936	       8.321
	14.800000000	     -10.599	     -19.568	      -8.977	    -109.774	      -8.986	    -109.772	     -24.657	       5.498
	15.000000000	     -10.562	     -21.167	      -9.000	    -118.543	      -9.009	    -118.542	     -25.066	       2.532
	15.200000000	     -10.573	     -23.462	      -9.016	    -127.310	      -9.023	    -127.308	     -25.654	       2.331
	15.400000000	     -10.688	     -25.968	      -9.022	    -136.048	      -9.031	    -136.042	     -26.689	       6.751
	15.600000000	     -10.856	     -28.874	      -9.024	    -144.848	      -9.035	    -144.821	     -27.343	      16.373
	15.800000000	     -11.101	     -32.302	      -9.026	    -153.617	      -9.037	    -153.589	     -27.348	      31.472
	16.000000000	     -11.435	     -36.130	      -9.026	    -162.375	      -9.040	    -162.349	     -26.138	      44.488
	16.200000000	     -11.748	     -40.131	      -9.025	    -171.113	      -9.032	    -171.118	     -24.462	      53.732
	16.400000000	     -12.161	     -44.735	      -9.015	    -179.902	      -9.023	    -179.908	     -22.753	      58.528
	16.600000000	     -12.614	     -49.427	      -9.004	     171.304	      -9.011	     171.289	     -21.169	      61.246
	16.800000000	     -12.955	     -54.069	      -8.994	     162.459	      -9.000	     162.443	     -19.816	      61.687
	17.000000000	     -13.341	     -58.745	      -8.988	     153.558	      -8.996	     153.544	     -18.510	      59.148
	17.200000000	     -13.660	     -63.503	      -8.988	     144.640	      -8.996	     144.627	     -17.565	      54.341
	17.400000000	     -13.903	     -68.755	      -9.001	     135.761	      -9.010	     135.758	     -16.836	      51.349
	17.600000000	     -14.125	     -72.896	      -9.000	     126.952	      -9.009	     126.953	     -16.198	      47.017
	17.800000000	     -14.315	     -77.698	      -9.004	     118.069	      -9.015	     118.073	     -15.650	      42.425
	18.000000000	     -14.503	     -80.945	      -9.010	     109.215	      -9.022	     109.222	     -15.097	      37.626
	18.200000000	     -14.702	     -84.379	      -9.016	     100.361	      -9.027	     100.370	     -14.787	      32.468
	18.400000000	     -14.841	     -86.850	      -9.025	      91.540	      -9.036	      91.540	     -14.418	      26.943
	18.600000000	     -15.048	     -88.510	      -9.029	      82.711	      -9.040	      82.711	     -14.239	      21.166
	18.800000000	     -15.344	     -89.321	      -9.033	      73.902	      -9.042	      73.908	     -14.020	      15.125
	19.000000000	     -15.626	     -89.437	      -9.031	      65.075	      -9.040	      65.086	     -14.040	       8.757
	19.200000000	     -15.967	     -88.368	      -9.030	      56.325	      -9.029	      56.258	     -14.057	       1.624
	19.400000000	     -16.087	     -86.140	      -9.014	      47.567	      -9.014	      47.505	     -14.289	      -5.383
	19.600000000	     -16.213	     -86.181	      -8.924	      38.563	      -8.924	      38.503	     -14.546	     -12.012
	19.800000000	     -17.029	     -80.873	      -8.970	      29.014	      -8.971	      28.964	     -15.027	     -19.644
	20.000000000	     -17.056	     -73.946	      -9.009	      20.124	      -9.009	      20.065	     -15.572	     -27.417
	20.200000000	     -16.739	     -68.419	      -9.015	      11.201	      -9.017	      11.142	     -16.579	     -34.880
	20.400000000	     -16.260	     -63.667	      -9.003	       2.143	      -9.004	       2.083	     -17.743	     -42.072
	20.600000000	     -15.978	     -62.835	      -9.010	      -7.242	      -9.010	      -7.304	     -18.979	     -49.324
	20.800000000	     -15.859	     -59.089	      -9.069	     -16.544	      -9.068	     -16.615	     -20.426	     -58.534
	21.000000000	     -15.410	     -56.364	      -9.124	     -25.719	      -9.123	     -25.784	     -22.501	     -72.127
	21.200000000	     -14.952	     -54.723	      -9.177	     -34.904	      -9.176	     -34.959	     -25.230	     -87.607
	21.400000000	     -14.520	     -54.336	      -9.234	     -44.092	      -9.233	     -44.152	     -27.815	    -118.010
	21.600000000	     -14.139	     -56.003	      -9.295	     -53.323	      -9.296	     -53.380	     -28.628	    -155.141
	21.800000000	     -13.802	     -58.669	      -9.365	     -62.587	      -9.367	     -62.645	     -26.545	     171.585
	22.000000000	     -13.600	     -62.046	      -9.442	     -71.840	      -9.443	     -71.891	     -24.539	     150.596
	22.200000000	     -13.334	     -66.280	      -9.526	     -81.098	      -9.528	     -81.148	     -22.453	     137.412
	22.400000000	     -13.216	     -72.022	      -9.612	     -90.377	      -9.613	     -90.434	     -20.982	     126.476
	22.600000000	     -13.135	     -77.948	      -9.702	     -99.656	      -9.702	     -99.716	     -19.886	     118.871
	22.800000000	     -13.068	     -84.758	      -9.790	    -109.059	      -9.790	    -109.116	     -19.059	     110.890
	23.000000000	     -12.951	     -92.408	      -9.902	    -118.633	      -9.902	    -118.692	     -18.277	     104.575
	23.200000000	     -12.833	     -99.176	     -10.054	    -128.180	     -10.054	    -128.221	     -17.545	      95.169
	23.400000000	     -12.696	    -107.110	     -10.233	    -137.756	     -10.235	    -137.803	     -16.911	      87.354
	23.600000000	     -12.670	    -113.897	     -10.503	    -147.138	     -10.504	    -147.180	     -16.305	      78.269
	23.800000000	     -12.295	    -117.081	     -10.779	    -155.205	     -10.784	    -155.250	     -16.193	      68.203
	24.000000000	     -11.563	    -122.556	     -10.799	    -163.202	     -10.803	    -163.245	     -15.838	      59.362
	24.200000000	     -10.923	    -129.697	     -10.804	    -172.475	     -10.814	    -172.459	     -15.828	      52.983
	24.400000000	     -10.401	    -136.606	     -10.882	     178.051	     -10.894	     178.076	     -15.241	      46.550
	24.600000000	      -9.999	    -143.495	     -10.993	     168.525	     -11.005	     168.552	     -14.789	      41.424
	24.800000000	      -9.542	    -149.117	     -11.137	     158.962	     -11.146	     158.983	     -14.264	      35.673
	25.000000000	      -9.227	    -155.578	     -11.304	     149.377	     -11.313	     149.401	     -13.828	      30.424