!File name = SN03_25C_5V_Phase25.s2p
!Date = 2/3/2014
!Time = 2:36 PM
!Test duration(min) = 0.07
!Test = SPars
!MPTS version = 7.120.8
!Comments = 
!set_LD1(binary) = 25
!set_LD2(binary) = 524262
!test = SPars
!date_code = 20140203
!file_name = SN03_25C_5V_Phase25.s2p
!VREF(V) = 5.000
!VREF(mA) = 0.001
# GHz   S   DB   R   50
!%	Freq(GHz)	     S11(dB)	    S11(deg)	     S21(dB)	    S21(deg)	     S12(dB)	    S12(deg)	     S22(dB)	    S22(deg)
	5.000000000	      -5.598	     168.762	     -33.943	      69.042	     -33.950	      69.032	      -5.243	    -122.486
	5.200000000	      -5.712	     158.015	     -32.682	      57.687	     -32.692	      57.648	      -5.739	    -126.661
	5.400000000	      -5.810	     147.074	     -31.506	      46.297	     -31.512	      46.235	      -6.270	    -130.890
	5.600000000	      -5.892	     136.063	     -30.433	      34.362	     -30.438	      34.399	      -6.868	    -135.439
	5.800000000	      -5.976	     125.084	     -29.401	      22.150	     -29.417	      22.126	      -7.478	    -140.105
	6.000000000	      -6.068	     114.339	     -28.490	       9.418	     -28.495	       9.396	      -8.117	    -144.955
	6.200000000	      -6.171	     103.861	     -27.697	      -3.462	     -27.710	      -3.487	      -8.770	    -150.180
	6.400000000	      -6.314	      93.761	     -27.018	     -16.266	     -27.025	     -16.315	      -9.413	    -155.605
	6.600000000	      -6.485	      84.117	     -26.396	     -29.068	     -26.404	     -29.102	     -10.061	    -161.136
	6.800000000	      -6.693	      74.814	     -25.844	     -42.010	     -25.876	     -41.866	     -10.653	    -167.045
	7.000000000	      -6.932	      66.069	     -25.384	     -54.679	     -25.413	     -54.521	     -11.218	    -172.996
	7.200000000	      -7.202	      57.758	     -24.981	     -67.207	     -25.010	     -67.049	     -11.764	    -179.253
	7.400000000	      -7.519	      49.942	     -24.642	     -79.557	     -24.676	     -79.402	     -12.233	     174.599
	7.600000000	      -7.824	      42.544	     -24.353	     -91.772	     -24.383	     -91.595	     -12.668	     168.343
	7.800000000	      -8.199	      35.727	     -24.107	    -103.749	     -24.139	    -103.595	     -13.079	     162.195
	8.000000000	      -8.548	      29.189	     -23.902	    -115.569	     -23.931	    -115.412	     -13.436	     156.051
	8.200000000	      -8.928	      23.001	     -23.725	    -127.187	     -23.755	    -127.064	     -13.820	     150.250
	8.400000000	      -9.318	      17.196	     -23.578	    -138.625	     -23.605	    -138.469	     -14.189	     144.984
	8.600000000	      -9.731	      11.716	     -23.451	    -149.892	     -23.473	    -149.728	     -14.629	     139.738
	8.800000000	     -10.136	       6.478	     -23.354	    -161.040	     -23.378	    -160.891	     -15.107	     134.616
	9.000000000	     -10.549	       1.601	     -23.272	    -171.987	     -23.295	    -171.855	     -15.673	     129.573
	9.200000000	     -10.948	      -3.093	     -23.205	     177.172	     -23.228	     177.322	     -16.288	     124.329
	9.400000000	     -11.359	      -7.240	     -23.154	     166.498	     -23.178	     166.634	     -16.956	     118.508
	9.600000000	     -11.710	     -11.145	     -23.118	     155.929	     -23.144	     156.095	     -17.815	     112.204
	9.800000000	     -12.085	     -14.572	     -23.089	     145.467	     -23.114	     145.657	     -18.675	     104.481
	10.000000000	     -12.407	     -17.585	     -23.073	     135.103	     -23.095	     135.290	     -19.576	      96.727
	10.200000000	     -12.684	     -20.107	     -23.074	     124.824	     -23.096	     125.004	     -20.484	      86.588
	10.400000000	     -12.965	     -22.408	     -23.075	     114.631	     -23.102	     114.778	     -21.153	      75.143
	10.600000000	     -13.143	     -24.274	     -23.094	     104.538	     -23.118	     104.693	     -21.874	      61.965
	10.800000000	     -13.296	     -25.623	     -23.139	      94.630	     -23.151	      94.631	     -22.147	      47.616
	11.000000000	     -13.393	     -26.357	     -23.186	      84.746	     -23.195	      84.741	     -21.991	      34.812
	11.200000000	     -13.452	     -27.119	     -23.221	      74.920	     -23.233	      74.912	     -21.629	      22.666
	11.400000000	     -13.451	     -27.341	     -23.271	      65.142	     -23.280	      65.155	     -21.026	      12.302
	11.600000000	     -13.372	     -27.068	     -23.320	      55.426	     -23.334	      55.452	     -20.398	       4.024
	11.800000000	     -13.303	     -26.638	     -23.383	      45.789	     -23.395	      45.797	     -19.736	      -3.077
	12.000000000	     -13.135	     -26.349	     -23.441	      36.300	     -23.453	      36.310	     -19.179	      -8.103
	12.200000000	     -12.942	     -25.390	     -23.496	      26.875	     -23.493	      26.753	     -18.675	     -12.954
	12.400000000	     -12.768	     -24.814	     -23.556	      17.510	     -23.555	      17.411	     -18.176	     -16.242
	12.600000000	     -12.561	     -23.976	     -23.613	       8.299	     -23.611	       8.181	     -17.964	     -19.205
	12.800000000	     -12.401	     -23.118	     -23.658	      -0.758	     -23.660	      -0.859	     -17.729	     -21.895
	13.000000000	     -12.213	     -22.681	     -23.693	      -9.785	     -23.688	      -9.885	     -17.591	     -23.881
	13.200000000	     -12.009	     -22.048	     -23.718	     -18.691	     -23.715	     -18.805	     -17.511	     -26.022
	13.400000000	     -11.854	     -21.629	     -23.735	     -27.637	     -23.732	     -27.745	     -17.476	     -28.215
	13.600000000	     -11.733	     -21.552	     -23.745	     -36.456	     -23.745	     -36.554	     -17.443	     -29.835
	13.800000000	     -11.609	     -21.177	     -23.751	     -45.178	     -23.743	     -45.299	     -17.570	     -31.493
	14.000000000	     -11.542	     -21.269	     -23.743	     -53.924	     -23.737	     -54.026	     -17.660	     -33.239
	14.200000000	     -11.473	     -21.180	     -23.732	     -62.542	     -23.725	     -62.663	     -17.914	     -35.105
	14.400000000	     -11.438	     -21.174	     -23.706	     -71.218	     -23.707	     -71.337	     -18.061	     -37.473
	14.600000000	     -11.440	     -21.449	     -23.685	     -79.791	     -23.682	     -79.934	     -18.349	     -38.610
	14.800000000	     -11.442	     -21.844	     -23.663	     -88.341	     -23.662	     -88.472	     -18.645	     -39.106
	15.000000000	     -11.553	     -22.223	     -23.637	     -96.906	     -23.633	     -96.998	     -18.972	     -40.777
	15.200000000	     -11.664	     -23.129	     -23.607	    -105.376	     -23.602	    -105.509	     -19.289	     -41.960
	15.400000000	     -11.848	     -24.128	     -23.572	    -113.836	     -23.571	    -113.956	     -19.760	     -43.239
	15.600000000	     -12.034	     -25.442	     -23.533	    -122.342	     -23.541	    -122.347	     -20.210	     -43.855
	15.800000000	     -12.265	     -27.350	     -23.492	    -130.669	     -23.503	    -130.677	     -20.816	     -44.556
	16.000000000	     -12.556	     -29.578	     -23.447	    -138.981	     -23.456	    -138.998	     -21.404	     -44.536
	16.200000000	     -12.784	     -32.019	     -23.383	    -147.231	     -23.399	    -147.217	     -22.133	     -44.525
	16.400000000	     -13.090	     -35.038	     -23.305	    -155.629	     -23.319	    -155.604	     -22.944	     -44.650
	16.600000000	     -13.397	     -38.206	     -23.212	    -164.108	     -23.227	    -164.094	     -24.066	     -44.798
	16.800000000	     -13.548	     -41.678	     -23.121	    -172.929	     -23.138	    -172.908	     -25.283	     -45.633
	17.000000000	     -13.740	     -45.341	     -23.091	     178.011	     -23.105	     178.019	     -26.476	     -44.165
	17.200000000	     -13.866	     -49.213	     -23.140	     169.075	     -23.157	     169.090	     -27.257	     -44.282
	17.400000000	     -13.950	     -53.676	     -23.222	     160.727	     -23.235	     160.763	     -29.575	     -46.579
	17.600000000	     -13.923	     -57.103	     -23.218	     152.564	     -23.233	     152.569	     -32.018	     -46.611
	17.800000000	     -13.887	     -61.420	     -23.231	     144.208	     -23.244	     144.211	     -35.750	     -43.576
	18.000000000	     -13.781	     -64.499	     -23.248	     135.884	     -23.262	     135.910	     -41.116	     -16.867
	18.200000000	     -13.671	     -67.999	     -23.265	     127.669	     -23.280	     127.690	     -44.794	      52.172
	18.400000000	     -13.485	     -70.966	     -23.283	     119.468	     -23.296	     119.490	     -37.566	      82.791
	18.600000000	     -13.323	     -73.482	     -23.292	     111.297	     -23.306	     111.332	     -33.565	      93.944
	18.800000000	     -13.228	     -75.566	     -23.304	     103.199	     -23.318	     103.201	     -30.420	      92.990
	19.000000000	     -13.121	     -77.512	     -23.306	      95.088	     -23.320	      95.105	     -28.229	      95.846
	19.200000000	     -13.079	     -78.976	     -23.294	      86.971	     -23.307	      87.049	     -26.834	      93.855
	19.400000000	     -12.924	     -80.114	     -23.279	      78.941	     -23.290	      78.972	     -25.406	      94.348
	19.600000000	     -12.822	     -83.038	     -23.207	      70.625	     -23.218	      70.677	     -23.604	      95.456
	19.800000000	     -13.287	     -83.151	     -23.259	      62.055	     -23.272	      62.115	     -21.776	      91.695
	20.000000000	     -13.362	     -82.314	     -23.272	      54.112	     -23.288	      54.186	     -21.058	      84.947
	20.200000000	     -13.371	     -82.434	     -23.258	      46.021	     -23.273	      46.087	     -20.147	      83.870
	20.400000000	     -13.408	     -82.708	     -23.222	      37.787	     -23.236	      37.896	     -19.314	      81.303
	20.600000000	     -13.656	     -85.908	     -23.207	      29.228	     -23.222	      29.302	     -18.591	      78.898
	20.800000000	     -14.318	     -86.407	     -23.248	      20.800	     -23.264	      20.874	     -17.944	      75.723
	21.000000000	     -14.819	     -86.096	     -23.287	      12.614	     -23.299	      12.640	     -17.469	      74.252
	21.200000000	     -15.407	     -85.491	     -23.312	       4.399	     -23.322	       4.450	     -16.855	      71.823
	21.400000000	     -16.042	     -84.453	     -23.327	      -3.816	     -23.342	      -3.736	     -16.450	      71.085
	21.600000000	     -16.600	     -84.064	     -23.343	     -12.105	     -23.358	     -12.080	     -16.062	      68.746
	21.800000000	     -17.097	     -83.234	     -23.367	     -20.431	     -23.382	     -20.370	     -15.740	      67.542
	22.000000000	     -17.607	     -82.474	     -23.393	     -28.765	     -23.412	     -28.699	     -15.388	      64.672
	22.200000000	     -17.813	     -81.443	     -23.414	     -37.172	     -23.432	     -37.090	     -15.183	      62.585
	22.400000000	     -18.002	     -82.585	     -23.443	     -45.732	     -23.462	     -45.676	     -14.951	      59.580
	22.600000000	     -18.096	     -83.714	     -23.503	     -54.432	     -23.515	     -54.383	     -14.909	      56.568
	22.800000000	     -18.049	     -86.082	     -23.591	     -63.310	     -23.607	     -63.235	     -14.803	      52.829
	23.000000000	     -17.759	     -90.101	     -23.770	     -72.183	     -23.788	     -72.119	     -14.790	      49.377
	23.200000000	     -17.365	     -93.116	     -23.961	     -80.661	     -23.979	     -80.583	     -14.548	      44.793
	23.400000000	     -16.864	     -98.797	     -24.241	     -89.308	     -24.257	     -89.260	     -14.454	      40.716
	23.600000000	     -16.469	    -103.571	     -24.730	     -96.740	     -24.746	     -96.628	     -14.217	      36.464
	23.800000000	     -15.571	    -104.983	     -24.941	    -100.579	     -24.958	    -100.481	     -14.046	      30.527
	24.000000000	     -14.430	    -109.423	     -24.484	    -106.950	     -24.504	    -106.834	     -13.623	      25.048
	24.200000000	     -13.383	    -115.913	     -24.281	    -116.210	     -24.292	    -116.200	     -13.660	      19.161
	24.400000000	     -12.449	    -122.483	     -24.288	    -125.551	     -24.301	    -125.502	     -13.344	      14.909
	24.600000000	     -11.684	    -129.195	     -24.362	    -134.622	     -24.374	    -134.597	     -13.153	      11.438
	24.800000000	     -10.821	    -134.985	     -24.474	    -143.597	     -24.487	    -143.557	     -12.821	       7.551
	25.000000000	     -10.181	    -141.817	     -24.603	    -152.429	     -24.620	    -152.405	     -12.557	       3.734