!File name = SN03_25C_5V_Phase7.s2p
!Date = 2/3/2014
!Time = 2:34 PM
!Test duration(min) = 0.07
!Test = SPars
!MPTS version = 7.120.8
!Comments = 
!set_LD1(binary) = 7
!set_LD2(binary) = 524280
!test = SPars
!date_code = 20140203
!file_name = SN03_25C_5V_Phase7.s2p
!VREF(V) = 5.000
!VREF(mA) = 0.003
# GHz   S   DB   R   50
!%	Freq(GHz)	     S11(dB)	    S11(deg)	     S21(dB)	    S21(deg)	     S12(dB)	    S12(deg)	     S22(dB)	    S22(deg)
	5.000000000	      -7.653	     159.207	     -24.236	      90.672	     -24.249	      90.646	      -1.833	    -132.563
	5.200000000	      -7.726	     147.292	     -22.491	      78.852	     -22.500	      78.846	      -2.196	    -140.132
	5.400000000	      -7.774	     135.048	     -20.792	      66.339	     -20.805	      66.355	      -2.646	    -148.246
	5.600000000	      -7.805	     122.641	     -19.201	      53.006	     -19.211	      53.022	      -3.215	    -157.143
	5.800000000	      -7.860	     110.183	     -17.698	      38.932	     -17.713	      38.920	      -3.894	    -166.551
	6.000000000	      -7.968	      97.986	     -16.341	      24.124	     -16.354	      24.139	      -4.707	    -176.417
	6.200000000	      -8.145	      86.150	     -15.139	       8.841	     -15.153	       8.850	      -5.652	     173.377
	6.400000000	      -8.442	      74.836	     -14.095	      -6.722	     -14.109	      -6.703	      -6.720	     163.314
	6.600000000	      -8.853	      64.321	     -13.201	     -22.408	     -13.217	     -22.383	      -7.903	     153.658
	6.800000000	      -9.371	      54.611	     -12.465	     -38.081	     -12.483	     -38.037	      -9.118	     144.760
	7.000000000	      -9.997	      46.101	     -11.871	     -53.502	     -11.888	     -53.468	     -10.354	     137.006
	7.200000000	     -10.684	      38.805	     -11.403	     -68.598	     -11.420	     -68.570	     -11.511	     130.143
	7.400000000	     -11.434	      32.827	     -11.040	     -83.296	     -11.057	     -83.269	     -12.532	     124.709
	7.600000000	     -12.121	      28.319	     -10.763	     -97.548	     -10.779	     -97.513	     -13.364	     119.769
	7.800000000	     -12.813	      25.114	     -10.556	    -111.317	     -10.573	    -111.282	     -14.017	     115.145
	8.000000000	     -13.314	      22.877	     -10.401	    -124.626	     -10.419	    -124.586	     -14.491	     110.282
	8.200000000	     -13.694	      21.249	     -10.284	    -137.512	     -10.295	    -137.514	     -14.909	     104.704
	8.400000000	     -13.903	      19.804	     -10.197	    -149.996	     -10.206	    -149.997	     -15.352	      98.726
	8.600000000	     -13.998	      18.155	     -10.130	    -162.120	     -10.139	    -162.125	     -15.847	      91.350
	8.800000000	     -13.978	      15.969	     -10.078	    -173.954	     -10.086	    -173.955	     -16.418	      82.988
	9.000000000	     -13.913	      13.371	     -10.038	     174.490	     -10.045	     174.483	     -17.109	      73.009
	9.200000000	     -13.812	      10.150	     -10.006	     163.157	     -10.012	     163.149	     -17.824	      61.534
	9.400000000	     -13.720	       6.935	      -9.981	     152.051	      -9.989	     152.045	     -18.499	      48.303
	9.600000000	     -13.579	       3.275	      -9.964	     141.098	      -9.971	     141.100	     -19.063	      32.459
	9.800000000	     -13.486	      -0.264	      -9.953	     130.331	      -9.962	     130.343	     -19.242	      16.094
	10.000000000	     -13.361	      -3.961	      -9.947	     119.728	      -9.955	     119.743	     -19.275	      -0.471
	10.200000000	     -13.227	      -7.547	      -9.947	     109.272	      -9.953	     109.274	     -18.887	     -15.799
	10.400000000	     -13.149	     -11.271	      -9.945	      98.926	      -9.952	      98.925	     -18.425	     -29.011
	10.600000000	     -13.022	     -14.916	      -9.952	      88.715	      -9.958	      88.714	     -17.850	     -41.594
	10.800000000	     -12.926	     -18.360	      -9.957	      78.598	      -9.972	      78.648	     -17.319	     -51.859
	11.000000000	     -12.858	     -21.417	      -9.962	      68.603	      -9.977	      68.656	     -17.023	     -61.056
	11.200000000	     -12.839	     -24.542	      -9.964	      58.666	      -9.979	      58.714	     -16.802	     -69.470
	11.400000000	     -12.850	     -27.150	      -9.969	      48.786	      -9.984	      48.829	     -16.751	     -77.153
	11.600000000	     -12.886	     -29.108	      -9.973	      38.965	      -9.988	      39.010	     -16.905	     -84.354
	11.800000000	     -13.016	     -30.582	      -9.978	      29.173	      -9.993	      29.212	     -17.218	     -91.052
	12.000000000	     -13.127	     -31.632	      -9.983	      19.416	      -9.998	      19.462	     -17.852	     -97.590
	12.200000000	     -13.271	     -31.322	      -9.991	       9.698	     -10.000	       9.709	     -18.653	    -103.940
	12.400000000	     -13.452	     -30.627	     -10.005	      -0.002	     -10.013	       0.010	     -19.869	    -109.406
	12.600000000	     -13.572	     -28.779	     -10.025	      -9.647	     -10.034	      -9.631	     -21.459	    -116.455
	12.800000000	     -13.677	     -26.192	     -10.050	     -19.216	     -10.060	     -19.208	     -23.502	    -122.384
	13.000000000	     -13.636	     -23.591	     -10.082	     -28.734	     -10.092	     -28.715	     -26.414	    -128.936
	13.200000000	     -13.458	     -20.612	     -10.119	     -38.147	     -10.128	     -38.137	     -30.571	    -135.615
	13.400000000	     -13.230	     -18.011	     -10.158	     -47.499	     -10.167	     -47.498	     -37.701	    -141.554
	13.600000000	     -12.956	     -16.084	     -10.198	     -56.775	     -10.207	     -56.759	     -49.254	      32.787
	13.800000000	     -12.613	     -14.283	     -10.241	     -65.949	     -10.250	     -65.945	     -35.375	      31.739
	14.000000000	     -12.309	     -13.414	     -10.282	     -75.084	     -10.290	     -75.079	     -30.887	      25.505
	14.200000000	     -11.988	     -12.813	     -10.322	     -84.125	     -10.331	     -84.127	     -28.724	      22.268
	14.400000000	     -11.707	     -12.656	     -10.360	     -93.138	     -10.370	     -93.146	     -27.469	      15.867
	14.600000000	     -11.480	     -13.137	     -10.399	    -102.074	     -10.409	    -102.072	     -26.575	      14.130
	14.800000000	     -11.283	     -14.042	     -10.435	    -110.959	     -10.445	    -110.960	     -25.951	      13.844
	15.000000000	     -11.220	     -15.028	     -10.466	    -119.789	     -10.475	    -119.791	     -26.010	      13.381
	15.200000000	     -11.201	     -16.682	     -10.491	    -128.620	     -10.500	    -128.620	     -26.069	      15.253
	15.400000000	     -11.278	     -18.454	     -10.510	    -137.407	     -10.518	    -137.406	     -26.315	      21.061
	15.600000000	     -11.395	     -20.600	     -10.523	    -146.267	     -10.536	    -146.228	     -26.021	      28.751
	15.800000000	     -11.585	     -23.230	     -10.539	    -155.070	     -10.554	    -155.031	     -25.367	      37.993
	16.000000000	     -11.857	     -26.187	     -10.555	    -163.841	     -10.570	    -163.808	     -24.191	      44.779
	16.200000000	     -12.098	     -29.330	     -10.567	    -172.590	     -10.579	    -172.581	     -22.906	      49.766
	16.400000000	     -12.440	     -32.963	     -10.572	     178.624	     -10.582	     178.628	     -21.659	      52.497
	16.600000000	     -12.807	     -36.620	     -10.574	     169.840	     -10.584	     169.836	     -20.501	      54.443
	16.800000000	     -13.047	     -40.427	     -10.578	     160.999	     -10.587	     160.997	     -19.482	      54.808
	17.000000000	     -13.326	     -44.232	     -10.585	     152.102	     -10.594	     152.096	     -18.422	      52.807
	17.200000000	     -13.535	     -48.193	     -10.600	     143.183	     -10.610	     143.182	     -17.639	      48.565
	17.400000000	     -13.694	     -52.733	     -10.629	     134.315	     -10.640	     134.322	     -17.071	      46.181
	17.600000000	     -13.770	     -56.260	     -10.644	     125.519	     -10.656	     125.533	     -16.544	      42.436
	17.800000000	     -13.844	     -60.488	     -10.663	     116.652	     -10.675	     116.677	     -16.092	      38.486
	18.000000000	     -13.843	     -63.406	     -10.686	     107.819	     -10.699	     107.842	     -15.613	      34.365
	18.200000000	     -13.851	     -66.556	     -10.708	      98.990	     -10.722	      99.014	     -15.371	      29.807
	18.400000000	     -13.766	     -69.108	     -10.737	      90.202	     -10.748	      90.218	     -15.052	      24.950
	18.600000000	     -13.701	     -71.017	     -10.759	      81.414	     -10.772	      81.437	     -14.920	      19.802
	18.800000000	     -13.677	     -72.303	     -10.784	      72.662	     -10.796	      72.685	     -14.734	      14.468
	19.000000000	     -13.627	     -73.296	     -10.803	      63.895	     -10.815	      63.923	     -14.790	       8.824
	19.200000000	     -13.591	     -73.593	     -10.824	      55.250	     -10.824	      55.186	     -14.825	       2.414
	19.400000000	     -13.386	     -73.583	     -10.829	      46.575	     -10.830	      46.523	     -15.078	      -3.812
	19.600000000	     -13.255	     -75.579	     -10.763	      37.695	     -10.765	      37.642	     -15.362	      -9.371
	19.800000000	     -13.619	     -73.732	     -10.824	      28.327	     -10.829	      28.266	     -15.826	     -15.783
	20.000000000	     -13.459	     -71.259	     -10.875	      19.585	     -10.879	      19.535	     -16.304	     -22.533
	20.200000000	     -13.176	     -70.128	     -10.893	      10.827	     -10.896	      10.776	     -17.277	     -28.648
	20.400000000	     -12.865	     -69.472	     -10.887	       1.934	     -10.890	       1.879	     -18.361	     -34.307
	20.600000000	     -12.772	     -71.705	     -10.898	      -7.303	     -10.899	      -7.368	     -19.501	     -39.832
	20.800000000	     -12.932	     -71.494	     -10.960	     -16.459	     -10.962	     -16.516	     -20.831	     -46.829
	21.000000000	     -12.892	     -71.309	     -11.018	     -25.479	     -11.019	     -25.531	     -22.883	     -57.108
	21.200000000	     -12.862	     -71.532	     -11.066	     -34.501	     -11.066	     -34.550	     -25.603	     -66.978
	21.400000000	     -12.849	     -72.321	     -11.116	     -43.548	     -11.119	     -43.600	     -29.272	     -90.082
	21.600000000	     -12.812	     -74.450	     -11.169	     -52.672	     -11.173	     -52.714	     -32.356	    -128.406
	21.800000000	     -12.774	     -77.235	     -11.233	     -61.835	     -11.236	     -61.885	     -30.605	    -178.464
	22.000000000	     -12.815	     -80.701	     -11.301	     -71.014	     -11.305	     -71.052	     -27.713	     154.542
	22.200000000	     -12.758	     -84.593	     -11.379	     -80.201	     -11.383	     -80.232	     -24.816	     140.397
	22.400000000	     -12.761	     -90.071	     -11.457	     -89.424	     -11.460	     -89.471	     -22.891	     129.542
	22.600000000	     -12.773	     -95.768	     -11.540	     -98.681	     -11.543	     -98.728	     -21.471	     122.605
	22.800000000	     -12.755	    -102.284	     -11.625	    -108.076	     -11.627	    -108.119	     -20.425	     115.117
	23.000000000	     -12.646	    -109.495	     -11.740	    -117.667	     -11.743	    -117.705	     -19.427	     109.347
	23.200000000	     -12.572	    -115.912	     -11.903	    -127.179	     -11.907	    -127.209	     -18.559	      99.989
	23.400000000	     -12.419	    -123.329	     -12.096	    -136.708	     -12.101	    -136.739	     -17.787	      92.494
	23.600000000	     -12.402	    -129.916	     -12.392	    -145.991	     -12.397	    -146.011	     -17.063	      83.573
	23.800000000	     -12.181	    -132.605	     -12.683	    -153.702	     -12.691	    -153.712	     -16.870	      73.927
	24.000000000	     -11.546	    -136.984	     -12.668	    -161.437	     -12.674	    -161.461	     -16.381	      65.131
	24.200000000	     -10.929	    -143.102	     -12.648	    -170.691	     -12.661	    -170.632	     -16.241	      59.034
	24.400000000	     -10.431	    -149.180	     -12.719	     179.873	     -12.732	     179.921	     -15.522	      52.424
	24.600000000	     -10.047	    -155.445	     -12.824	     170.406	     -12.838	     170.451	     -14.927	      47.198
	24.800000000	      -9.643	    -160.402	     -12.959	     160.918	     -12.972	     160.966	     -14.274	      41.166
	25.000000000	      -9.354	    -166.423	     -13.122	     151.415	     -13.134	     151.465	     -13.722	      35.574