!File name = SN03_25C_5V_Phase11.s2p
!Date = 2/3/2014
!Time = 2:35 PM
!Test duration(min) = 0.07
!Test = SPars
!MPTS version = 7.120.8
!Comments = 
!set_LD1(binary) = 11
!set_LD2(binary) = 524276
!test = SPars
!date_code = 20140203
!file_name = SN03_25C_5V_Phase11.s2p
!VREF(V) = 5.000
!VREF(mA) = 0.002
# GHz   S   DB   R   50
!%	Freq(GHz)	     S11(dB)	    S11(deg)	     S21(dB)	    S21(deg)	     S12(dB)	    S12(deg)	     S22(dB)	    S22(deg)
	5.000000000	      -7.647	     163.198	     -26.321	      74.924	     -26.337	      74.982	      -1.910	    -131.547
	5.200000000	      -7.769	     152.055	     -24.814	      63.136	     -24.823	      63.124	      -2.270	    -138.671
	5.400000000	      -7.860	     140.746	     -23.375	      50.915	     -23.383	      50.942	      -2.699	    -146.199
	5.600000000	      -7.918	     129.431	     -22.049	      38.118	     -22.060	      38.108	      -3.220	    -154.359
	5.800000000	      -7.970	     118.224	     -20.810	      24.873	     -20.821	      24.847	      -3.807	    -162.902
	6.000000000	      -8.022	     107.396	     -19.696	      11.174	     -19.710	      11.170	      -4.469	    -171.835
	6.200000000	      -8.082	      96.953	     -18.715	      -2.722	     -18.728	      -2.734	      -5.192	     178.833
	6.400000000	      -8.189	      86.990	     -17.855	     -16.663	     -17.870	     -16.648	      -5.953	     169.398
	6.600000000	      -8.323	      77.599	     -17.093	     -30.547	     -17.108	     -30.539	      -6.756	     159.903
	6.800000000	      -8.496	      68.607	     -16.428	     -44.429	     -16.452	     -44.333	      -7.541	     150.463
	7.000000000	      -8.705	      60.249	     -15.864	     -58.010	     -15.885	     -57.929	      -8.332	     141.229
	7.200000000	      -8.941	      52.363	     -15.376	     -71.380	     -15.399	     -71.312	      -9.094	     131.965
	7.400000000	      -9.231	      45.005	     -14.957	     -84.514	     -14.978	     -84.454	      -9.834	     123.218
	7.600000000	      -9.500	      38.118	     -14.591	     -97.413	     -14.615	     -97.339	     -10.539	     114.545
	7.800000000	      -9.844	      31.807	     -14.280	    -110.030	     -14.302	    -109.968	     -11.239	     106.121
	8.000000000	     -10.147	      25.804	     -14.010	    -122.404	     -14.033	    -122.349	     -11.907	      97.910
	8.200000000	     -10.476	      20.138	     -13.774	    -134.568	     -13.790	    -134.529	     -12.598	      89.579
	8.400000000	     -10.802	      14.830	     -13.566	    -146.506	     -13.580	    -146.465	     -13.349	      81.376
	8.600000000	     -11.141	       9.773	     -13.388	    -158.244	     -13.401	    -158.216	     -14.125	      72.391
	8.800000000	     -11.461	       4.890	     -13.235	    -169.831	     -13.249	    -169.803	     -14.928	      62.844
	9.000000000	     -11.784	       0.278	     -13.104	     178.770	     -13.118	     178.798	     -15.764	      52.017
	9.200000000	     -12.089	      -4.259	     -12.995	     167.519	     -13.007	     167.553	     -16.530	      40.113
	9.400000000	     -12.409	      -8.301	     -12.905	     156.459	     -12.917	     156.481	     -17.180	      27.122
	9.600000000	     -12.668	     -12.174	     -12.833	     145.511	     -12.845	     145.551	     -17.610	      12.414
	9.800000000	     -12.955	     -15.638	     -12.774	     134.739	     -12.788	     134.791	     -17.721	      -1.804
	10.000000000	     -13.189	     -18.776	     -12.729	     124.108	     -12.742	     124.164	     -17.729	     -15.867
	10.200000000	     -13.382	     -21.452	     -12.698	     113.628	     -12.710	     113.683	     -17.441	     -28.461
	10.400000000	     -13.591	     -24.042	     -12.672	     103.263	     -12.684	     103.292	     -17.140	     -39.353
	10.600000000	     -13.700	     -26.246	     -12.660	      93.030	     -12.671	      93.061	     -16.727	     -49.815
	10.800000000	     -13.801	     -28.048	     -12.652	      82.923	     -12.668	      82.962	     -16.368	     -58.399
	11.000000000	     -13.874	     -29.338	     -12.647	      72.921	     -12.662	      72.955	     -16.204	     -66.271
	11.200000000	     -13.939	     -30.704	     -12.643	      62.981	     -12.659	      63.022	     -16.084	     -73.500
	11.400000000	     -13.982	     -31.529	     -12.645	      53.122	     -12.659	      53.157	     -16.098	     -80.115
	11.600000000	     -13.988	     -31.740	     -12.647	      43.322	     -12.662	      43.368	     -16.275	     -86.304
	11.800000000	     -14.049	     -31.653	     -12.652	      33.588	     -12.667	      33.618	     -16.570	     -92.072
	12.000000000	     -14.032	     -31.411	     -12.658	      23.906	     -12.674	      23.944	     -17.121	     -97.706
	12.200000000	     -14.015	     -30.076	     -12.668	      14.281	     -12.677	      14.284	     -17.780	    -103.161
	12.400000000	     -14.017	     -28.808	     -12.682	       4.682	     -12.690	       4.689	     -18.750	    -107.893
	12.600000000	     -13.958	     -26.817	     -12.702	      -4.841	     -12.711	      -4.838	     -19.965	    -114.071
	12.800000000	     -13.912	     -24.508	     -12.723	     -14.276	     -12.732	     -14.271	     -21.428	    -119.467
	13.000000000	     -13.770	     -22.469	     -12.745	     -23.653	     -12.755	     -23.645	     -23.375	    -125.513
	13.200000000	     -13.550	     -20.173	     -12.771	     -32.932	     -12.781	     -32.927	     -25.762	    -132.013
	13.400000000	     -13.336	     -18.167	     -12.798	     -42.161	     -12.806	     -42.161	     -28.790	    -139.078
	13.600000000	     -13.115	     -16.688	     -12.822	     -51.310	     -12.832	     -51.309	     -33.664	    -149.024
	13.800000000	     -12.850	     -15.102	     -12.853	     -60.384	     -12.861	     -60.389	     -41.124	     176.183
	14.000000000	     -12.631	     -14.202	     -12.874	     -69.430	     -12.884	     -69.428	     -41.064	      82.431
	14.200000000	     -12.390	     -13.342	     -12.897	     -78.407	     -12.908	     -78.415	     -34.803	      58.923
	14.400000000	     -12.179	     -12.739	     -12.919	     -87.376	     -12.931	     -87.377	     -31.854	      45.769
	14.600000000	     -12.005	     -12.652	     -12.942	     -96.265	     -12.953	     -96.276	     -29.371	      41.445
	14.800000000	     -11.841	     -12.878	     -12.966	    -105.139	     -12.978	    -105.141	     -27.474	      38.829
	15.000000000	     -11.788	     -13.110	     -12.988	    -113.960	     -12.997	    -113.962	     -26.598	      36.829
	15.200000000	     -11.761	     -13.999	     -13.007	    -122.769	     -13.017	    -122.772	     -25.763	      35.698
	15.400000000	     -11.805	     -14.986	     -13.023	    -131.538	     -13.033	    -131.540	     -25.181	      37.199
	15.600000000	     -11.871	     -16.355	     -13.035	    -140.350	     -13.051	    -140.328	     -24.427	      38.613
	15.800000000	     -11.996	     -18.273	     -13.052	    -149.099	     -13.068	    -149.072	     -23.734	      41.306
	16.000000000	     -12.186	     -20.524	     -13.067	    -157.817	     -13.085	    -157.788	     -22.919	      43.113
	16.200000000	     -12.326	     -23.036	     -13.077	    -166.537	     -13.093	    -166.492	     -22.147	      45.000
	16.400000000	     -12.558	     -26.057	     -13.085	    -175.252	     -13.099	    -175.219	     -21.428	      46.341
	16.600000000	     -12.797	     -29.167	     -13.089	     176.039	     -13.102	     176.054	     -20.758	      48.081
	16.800000000	     -12.897	     -32.653	     -13.094	     167.257	     -13.109	     167.274	     -20.171	      49.020
	17.000000000	     -13.032	     -36.222	     -13.109	     158.402	     -13.123	     158.427	     -19.433	      48.258
	17.200000000	     -13.104	     -40.043	     -13.138	     149.547	     -13.154	     149.575	     -18.897	      45.273
	17.400000000	     -13.137	     -44.521	     -13.184	     140.801	     -13.200	     140.836	     -18.545	      44.689
	17.600000000	     -13.067	     -48.190	     -13.209	     132.131	     -13.226	     132.188	     -18.171	      42.673
	17.800000000	     -13.004	     -52.616	     -13.242	     123.397	     -13.259	     123.449	     -17.828	      40.572
	18.000000000	     -12.858	     -56.053	     -13.282	     114.699	     -13.299	     114.750	     -17.397	      38.282
	18.200000000	     -12.729	     -59.779	     -13.321	     106.042	     -13.338	     106.088	     -17.208	      35.645
	18.400000000	     -12.521	     -63.182	     -13.365	      97.415	     -13.382	      97.467	     -16.890	      32.635
	18.600000000	     -12.339	     -66.096	     -13.406	      88.832	     -13.422	      88.879	     -16.761	      29.500
	18.800000000	     -12.206	     -68.586	     -13.448	      80.306	     -13.466	      80.348	     -16.525	      26.146
	19.000000000	     -12.077	     -70.935	     -13.484	      71.779	     -13.499	      71.832	     -16.545	      22.809
	19.200000000	     -11.984	     -72.767	     -13.521	      63.404	     -13.524	      63.364	     -16.525	      18.498
	19.400000000	     -11.778	     -74.412	     -13.538	      55.004	     -13.542	      54.965	     -16.703	      14.903
	19.600000000	     -11.659	     -77.756	     -13.493	      46.422	     -13.498	      46.396	     -16.855	      12.716
	19.800000000	     -12.035	     -78.092	     -13.561	      37.432	     -13.568	      37.417	     -17.000	       9.901
	20.000000000	     -12.002	     -77.619	     -13.610	      29.039	     -13.616	      29.027	     -17.179	       5.610
	20.200000000	     -11.908	     -78.190	     -13.625	      20.615	     -13.631	      20.598	     -17.773	       3.719
	20.400000000	     -11.823	     -79.036	     -13.614	      12.056	     -13.620	      12.024	     -18.308	       2.555
	20.600000000	     -11.947	     -82.479	     -13.619	       3.148	     -13.625	       3.121	     -18.784	       1.784
	20.800000000	     -12.394	     -83.619	     -13.674	      -5.659	     -13.678	      -5.694	     -19.283	       0.429
	21.000000000	     -12.689	     -84.228	     -13.716	     -14.319	     -13.722	     -14.354	     -20.247	      -0.139
	21.200000000	     -13.023	     -84.911	     -13.748	     -23.014	     -13.752	     -23.046	     -20.984	       1.698
	21.400000000	     -13.392	     -85.711	     -13.776	     -31.746	     -13.782	     -31.791	     -22.261	       4.552
	21.600000000	     -13.697	     -87.392	     -13.806	     -40.588	     -13.813	     -40.623	     -23.181	       8.093
	21.800000000	     -13.985	     -89.273	     -13.847	     -49.481	     -13.854	     -49.515	     -24.332	      14.709
	22.000000000	     -14.317	     -91.640	     -13.893	     -58.396	     -13.901	     -58.430	     -24.747	      21.325
	22.200000000	     -14.493	     -94.006	     -13.946	     -67.336	     -13.953	     -67.365	     -25.282	      29.332
	22.400000000	     -14.666	     -98.114	     -13.998	     -76.354	     -14.004	     -76.372	     -25.169	      35.988
	22.600000000	     -14.811	    -102.349	     -14.058	     -85.425	     -14.063	     -85.451	     -25.244	      40.912
	22.800000000	     -14.877	    -107.444	     -14.125	     -94.649	     -14.131	     -94.676	     -24.892	      43.491
	23.000000000	     -14.775	    -113.285	     -14.230	    -104.064	     -14.235	    -104.091	     -24.685	      46.873
	23.200000000	     -14.699	    -118.228	     -14.375	    -113.375	     -14.383	    -113.391	     -23.563	      45.882
	23.400000000	     -14.483	    -124.547	     -14.559	    -122.781	     -14.568	    -122.784	     -22.862	      45.571
	23.600000000	     -14.419	    -130.041	     -14.867	    -131.849	     -14.876	    -131.841	     -21.712	      43.061
	23.800000000	     -14.108	    -131.059	     -15.159	    -139.070	     -15.170	    -139.052	     -21.021	      35.277
	24.000000000	     -13.312	    -134.062	     -15.082	    -146.453	     -15.093	    -146.436	     -20.054	      28.941
	24.200000000	     -12.509	    -139.289	     -15.022	    -155.594	     -15.037	    -155.541	     -20.074	      23.454
	24.400000000	     -11.833	    -144.658	     -15.062	    -164.954	     -15.080	    -164.912	     -19.266	      20.985
	24.600000000	     -11.282	    -150.394	     -15.147	    -174.332	     -15.164	    -174.291	     -18.676	      19.331
	24.800000000	     -10.693	    -154.857	     -15.265	     176.253	     -15.281	     176.311	     -17.917	      16.565
	25.000000000	     -10.242	    -160.605	     -15.408	     166.862	     -15.425	     166.896	     -17.276	      13.646