!File name = SN03_25C_5V_Phase23.s2p
!Date = 2/3/2014
!Time = 2:35 PM
!Test duration(min) = 0.07
!Test = SPars
!MPTS version = 7.120.8
!Comments = 
!set_LD1(binary) = 23
!set_LD2(binary) = 524264
!test = SPars
!date_code = 20140203
!file_name = SN03_25C_5V_Phase23.s2p
!VREF(V) = 5.000
!VREF(mA) = 0.003
# GHz   S   DB   R   50
!%	Freq(GHz)	     S11(dB)	    S11(deg)	     S21(dB)	    S21(deg)	     S12(dB)	    S12(deg)	     S22(dB)	    S22(deg)
	5.000000000	      -7.689	     159.410	     -33.084	      82.111	     -33.100	      82.075	      -5.241	    -122.656
	5.200000000	      -7.772	     147.594	     -31.614	      70.647	     -31.620	      70.549	      -5.743	    -126.885
	5.400000000	      -7.825	     135.493	     -30.196	      58.743	     -30.200	      58.766	      -6.286	    -131.167
	5.600000000	      -7.856	     123.265	     -28.883	      46.163	     -28.905	      46.207	      -6.899	    -135.757
	5.800000000	      -7.903	     111.035	     -27.654	      33.086	     -27.666	      33.116	      -7.531	    -140.431
	6.000000000	      -7.992	      99.076	     -26.540	      19.295	     -26.557	      19.294	      -8.196	    -145.253
	6.200000000	      -8.135	      87.482	     -25.573	       5.145	     -25.584	       5.125	      -8.875	    -150.392
	6.400000000	      -8.383	      76.376	     -24.735	      -9.198	     -24.744	      -9.185	      -9.544	    -155.654
	6.600000000	      -8.727	      65.981	     -24.008	     -23.605	     -24.020	     -23.622	     -10.212	    -160.962
	6.800000000	      -9.166	      56.266	     -23.392	     -38.255	     -23.422	     -38.090	     -10.813	    -166.606
	7.000000000	      -9.701	      47.606	     -22.913	     -52.557	     -22.941	     -52.414	     -11.375	    -172.267
	7.200000000	     -10.297	      39.939	     -22.533	     -66.685	     -22.562	     -66.530	     -11.907	    -178.248
	7.400000000	     -10.959	      33.375	     -22.247	     -80.479	     -22.280	     -80.332	     -12.351	     175.840
	7.600000000	     -11.581	      28.010	     -22.035	     -93.961	     -22.068	     -93.797	     -12.752	     169.742
	7.800000000	     -12.249	      23.744	     -21.890	    -107.024	     -21.923	    -106.861	     -13.128	     163.700
	8.000000000	     -12.788	      20.330	     -21.794	    -119.708	     -21.824	    -119.571	     -13.448	     157.591
	8.200000000	     -13.271	      17.605	     -21.727	    -132.037	     -21.753	    -131.890	     -13.797	     151.773
	8.400000000	     -13.641	      15.367	     -21.685	    -144.016	     -21.712	    -143.882	     -14.134	     146.445
	8.600000000	     -13.922	      13.340	     -21.661	    -155.704	     -21.685	    -155.570	     -14.542	     141.123
	8.800000000	     -14.088	      11.163	     -21.655	    -167.123	     -21.680	    -166.997	     -14.995	     135.897
	9.000000000	     -14.185	       8.923	     -21.662	    -178.290	     -21.688	    -178.157	     -15.540	     130.746
	9.200000000	     -14.210	       6.228	     -21.672	     170.779	     -21.697	     170.898	     -16.138	     125.403
	9.400000000	     -14.214	       3.633	     -21.683	     160.000	     -21.711	     160.175	     -16.788	     119.476
	9.600000000	     -14.135	       0.623	     -21.703	     149.426	     -21.727	     149.545	     -17.632	     113.114
	9.800000000	     -14.095	      -2.314	     -21.719	     138.920	     -21.741	     139.068	     -18.481	     105.346
	10.000000000	     -14.010	      -5.374	     -21.743	     128.547	     -21.766	     128.701	     -19.372	      97.570
	10.200000000	     -13.907	      -8.332	     -21.772	     118.284	     -21.796	     118.451	     -20.279	      87.467
	10.400000000	     -13.856	     -11.369	     -21.800	     108.129	     -21.824	     108.278	     -20.958	      76.101
	10.600000000	     -13.744	     -14.343	     -21.834	      98.047	     -21.857	      98.190	     -21.688	      63.010
	10.800000000	     -13.659	     -16.975	     -21.886	      88.134	     -21.900	      88.148	     -21.998	      48.720
	11.000000000	     -13.569	     -19.118	     -21.937	      78.242	     -21.948	      78.245	     -21.872	      35.915
	11.200000000	     -13.506	     -21.314	     -21.979	      68.385	     -21.990	      68.411	     -21.541	      23.705
	11.400000000	     -13.437	     -22.956	     -22.028	      58.604	     -22.039	      58.587	     -20.964	      13.234
	11.600000000	     -13.339	     -23.989	     -22.077	      48.869	     -22.090	      48.858	     -20.353	       4.859
	11.800000000	     -13.300	     -24.656	     -22.136	      39.171	     -22.149	      39.156	     -19.702	      -2.337
	12.000000000	     -13.195	     -25.244	     -22.192	      29.611	     -22.204	      29.627	     -19.152	      -7.417
	12.200000000	     -13.086	     -24.860	     -22.241	      20.104	     -22.241	      19.996	     -18.654	     -12.323
	12.400000000	     -13.007	     -24.584	     -22.300	      10.641	     -22.296	      10.545	     -18.154	     -15.651
	12.600000000	     -12.894	     -23.770	     -22.354	       1.340	     -22.354	       1.229	     -17.944	     -18.627
	12.800000000	     -12.815	     -22.681	     -22.402	      -7.831	     -22.400	      -7.938	     -17.701	     -21.306
	13.000000000	     -12.687	     -21.872	     -22.437	     -16.977	     -22.437	     -17.068	     -17.554	     -23.309
	13.200000000	     -12.517	     -20.729	     -22.468	     -25.983	     -22.466	     -26.081	     -17.468	     -25.465
	13.400000000	     -12.373	     -19.734	     -22.493	     -35.007	     -22.493	     -35.104	     -17.420	     -27.664
	13.600000000	     -12.240	     -19.101	     -22.510	     -43.932	     -22.507	     -44.035	     -17.377	     -29.326
	13.800000000	     -12.080	     -18.187	     -22.529	     -52.775	     -22.523	     -52.888	     -17.488	     -31.042
	14.000000000	     -11.963	     -17.798	     -22.535	     -61.567	     -22.532	     -61.688	     -17.571	     -32.875
	14.200000000	     -11.827	     -17.305	     -22.539	     -70.281	     -22.537	     -70.411	     -17.815	     -34.817
	14.400000000	     -11.719	     -17.008	     -22.533	     -79.030	     -22.534	     -79.167	     -17.957	     -37.294
	14.600000000	     -11.643	     -17.068	     -22.529	     -87.665	     -22.532	     -87.789	     -18.239	     -38.546
	14.800000000	     -11.565	     -17.390	     -22.523	     -96.307	     -22.525	     -96.405	     -18.533	     -39.186
	15.000000000	     -11.598	     -17.724	     -22.517	    -104.857	     -22.516	    -104.965	     -18.866	     -40.984
	15.200000000	     -11.640	     -18.677	     -22.504	    -113.408	     -22.504	    -113.523	     -19.190	     -42.305
	15.400000000	     -11.760	     -19.779	     -22.492	    -121.882	     -22.487	    -121.999	     -19.673	     -43.726
	15.600000000	     -11.893	     -21.245	     -22.463	    -130.477	     -22.473	    -130.480	     -20.141	     -44.434
	15.800000000	     -12.086	     -23.328	     -22.446	    -138.858	     -22.460	    -138.861	     -20.772	     -45.219
	16.000000000	     -12.348	     -25.742	     -22.422	    -147.217	     -22.436	    -147.229	     -21.387	     -45.234
	16.200000000	     -12.564	     -28.409	     -22.381	    -155.501	     -22.396	    -155.476	     -22.149	     -45.219
	16.400000000	     -12.877	     -31.604	     -22.321	    -163.886	     -22.338	    -163.863	     -22.996	     -45.336
	16.600000000	     -13.206	     -34.905	     -22.251	    -172.334	     -22.266	    -172.319	     -24.158	     -45.400
	16.800000000	     -13.398	     -38.483	     -22.172	     178.915	     -22.188	     178.941	     -25.429	     -46.081
	17.000000000	     -13.643	     -42.142	     -22.140	     169.909	     -22.155	     169.937	     -26.671	     -44.199
	17.200000000	     -13.830	     -45.940	     -22.174	     160.958	     -22.186	     160.974	     -27.471	     -43.876
	17.400000000	     -13.989	     -50.260	     -22.243	     152.407	     -22.257	     152.452	     -29.846	     -45.466
	17.600000000	     -14.028	     -53.487	     -22.250	     144.114	     -22.263	     144.123	     -32.312	     -44.389
	17.800000000	     -14.072	     -57.525	     -22.266	     135.580	     -22.279	     135.628	     -36.055	     -38.976
	18.000000000	     -14.028	     -60.192	     -22.282	     127.141	     -22.298	     127.172	     -40.608	      -7.698
	18.200000000	     -13.979	     -63.172	     -22.307	     118.707	     -22.323	     118.730	     -42.595	      50.614
	18.400000000	     -13.826	     -65.536	     -22.332	     110.334	     -22.346	     110.336	     -36.714	      77.006
	18.600000000	     -13.675	     -67.374	     -22.353	     101.968	     -22.366	     101.972	     -33.252	      88.728
	18.800000000	     -13.562	     -68.635	     -22.374	      93.646	     -22.387	      93.652	     -30.288	      88.707
	19.000000000	     -13.408	     -69.752	     -22.388	      85.280	     -22.405	      85.323	     -28.260	      92.157
	19.200000000	     -13.280	     -70.324	     -22.397	      76.979	     -22.412	      77.026	     -26.935	      90.547
	19.400000000	     -12.995	     -70.674	     -22.397	      68.682	     -22.410	      68.742	     -25.587	      91.504
	19.600000000	     -12.768	     -72.939	     -22.343	      60.114	     -22.362	      60.175	     -23.845	      93.186
	19.800000000	     -13.019	     -72.071	     -22.428	      51.331	     -22.445	      51.409	     -22.024	      89.962
	20.000000000	     -12.833	     -70.597	     -22.470	      43.122	     -22.489	      43.212	     -21.306	      83.400
	20.200000000	     -12.558	     -70.427	     -22.486	      34.853	     -22.499	      34.917	     -20.409	      82.622
	20.400000000	     -12.277	     -70.659	     -22.481	      26.443	     -22.494	      26.494	     -19.576	      80.332
	20.600000000	     -12.228	     -73.740	     -22.494	      17.689	     -22.510	      17.731	     -18.854	      78.137
	20.800000000	     -12.469	     -74.433	     -22.563	       9.007	     -22.579	       9.063	     -18.210	      75.151
	21.000000000	     -12.543	     -74.974	     -22.636	       0.575	     -22.649	       0.646	     -17.734	      73.899
	21.200000000	     -12.662	     -75.715	     -22.700	      -7.790	     -22.711	      -7.742	     -17.114	      71.674
	21.400000000	     -12.810	     -76.732	     -22.753	     -16.172	     -22.766	     -16.103	     -16.706	      71.156
	21.600000000	     -12.934	     -78.866	     -22.805	     -24.660	     -22.819	     -24.572	     -16.312	      68.977
	21.800000000	     -13.046	     -81.317	     -22.858	     -33.119	     -22.877	     -33.035	     -15.981	      67.950
	22.000000000	     -13.218	     -84.360	     -22.920	     -41.636	     -22.936	     -41.543	     -15.623	      65.188
	22.200000000	     -13.266	     -87.564	     -22.968	     -50.173	     -22.987	     -50.101	     -15.408	      63.259
	22.400000000	     -13.339	     -92.407	     -23.025	     -58.937	     -23.042	     -58.827	     -15.167	      60.356
	22.600000000	     -13.405	     -97.378	     -23.106	     -67.840	     -23.121	     -67.764	     -15.121	      57.455
	22.800000000	     -13.413	    -103.150	     -23.215	     -76.973	     -23.233	     -76.900	     -15.010	      53.810
	23.000000000	     -13.289	    -109.617	     -23.422	     -86.272	     -23.440	     -86.216	     -14.991	      50.480
	23.200000000	     -13.179	    -115.288	     -23.674	     -95.096	     -23.696	     -95.015	     -14.740	      45.964
	23.400000000	     -12.948	    -122.168	     -24.007	    -104.164	     -24.022	    -104.043	     -14.632	      41.942
	23.600000000	     -12.836	    -128.529	     -24.593	    -112.016	     -24.611	    -111.965	     -14.380	      37.700
	23.800000000	     -12.565	    -131.338	     -24.982	    -115.769	     -25.002	    -115.637	     -14.207	      31.728
	24.000000000	     -11.958	    -135.474	     -24.553	    -121.329	     -24.572	    -121.227	     -13.781	      26.218
	24.200000000	     -11.312	    -141.077	     -24.329	    -130.461	     -24.345	    -130.452	     -13.823	      20.401
	24.400000000	     -10.750	    -146.762	     -24.346	    -139.830	     -24.356	    -139.804	     -13.493	      16.198
	24.600000000	     -10.297	    -152.787	     -24.431	    -148.965	     -24.447	    -148.915	     -13.293	      12.775
	24.800000000	      -9.806	    -157.598	     -24.555	    -157.949	     -24.573	    -157.937	     -12.947	       8.920
	25.000000000	      -9.438	    -163.583	     -24.713	    -166.809	     -24.726	    -166.798	     -12.670	       5.129