!File name = SN03_25C_5V_Phase24.s2p
!Date = 2/3/2014
!Time = 2:36 PM
!Test duration(min) = 0.07
!Test = SPars
!MPTS version = 7.120.8
!Comments = 
!set_LD1(binary) = 24
!set_LD2(binary) = 524263
!test = SPars
!date_code = 20140203
!file_name = SN03_25C_5V_Phase24.s2p
!VREF(V) = 5.000
!VREF(mA) = 0.001
# GHz   S   DB   R   50
!%	Freq(GHz)	     S11(dB)	    S11(deg)	     S21(dB)	    S21(deg)	     S12(dB)	    S12(deg)	     S22(dB)	    S22(deg)
	5.000000000	      -2.813	     176.223	     -32.776	      66.962	     -32.790	      66.991	      -5.242	    -122.486
	5.200000000	      -3.087	     165.866	     -31.579	      55.189	     -31.585	      55.172	      -5.737	    -126.666
	5.400000000	      -3.378	     155.313	     -30.427	      43.486	     -30.440	      43.447	      -6.270	    -130.895
	5.600000000	      -3.682	     144.663	     -29.406	      31.299	     -29.408	      31.294	      -6.867	    -135.446
	5.800000000	      -4.005	     133.998	     -28.425	      18.908	     -28.442	      18.889	      -7.477	    -140.116
	6.000000000	      -4.345	     123.482	     -27.559	       6.095	     -27.576	       6.095	      -8.116	    -144.976
	6.200000000	      -4.702	     113.172	     -26.821	      -6.756	     -26.830	      -6.786	      -8.769	    -150.216
	6.400000000	      -5.093	     103.191	     -26.180	     -19.555	     -26.192	     -19.580	      -9.414	    -155.648
	6.600000000	      -5.498	      93.617	     -25.595	     -32.213	     -25.605	     -32.218	     -10.063	    -161.190
	6.800000000	      -5.934	      84.363	     -25.068	     -45.023	     -25.101	     -44.879	     -10.657	    -167.107
	7.000000000	      -6.388	      75.637	     -24.625	     -57.466	     -24.659	     -57.308	     -11.227	    -173.052
	7.200000000	      -6.862	      67.338	     -24.239	     -69.832	     -24.272	     -69.671	     -11.777	    -179.301
	7.400000000	      -7.372	      59.564	     -23.911	     -81.998	     -23.939	     -81.823	     -12.248	     174.575
	7.600000000	      -7.866	      52.185	     -23.620	     -93.967	     -23.648	     -93.844	     -12.687	     168.348
	7.800000000	      -8.422	      45.471	     -23.369	    -105.812	     -23.401	    -105.641	     -13.100	     162.239
	8.000000000	      -8.950	      39.016	     -23.156	    -117.450	     -23.190	    -117.275	     -13.456	     156.149
	8.200000000	      -9.510	      33.001	     -22.973	    -128.911	     -23.001	    -128.787	     -13.839	     150.365
	8.400000000	     -10.077	      27.414	     -22.811	    -140.217	     -22.840	    -140.075	     -14.205	     145.138
	8.600000000	     -10.670	      22.230	     -22.672	    -151.399	     -22.695	    -151.218	     -14.638	     139.930
	8.800000000	     -11.258	      17.358	     -22.558	    -162.414	     -22.583	    -162.284	     -15.110	     134.835
	9.000000000	     -11.854	      12.950	     -22.465	    -173.285	     -22.488	    -173.141	     -15.668	     129.808
	9.200000000	     -12.433	       8.808	     -22.382	     175.948	     -22.407	     176.073	     -16.278	     124.582
	9.400000000	     -13.017	       5.422	     -22.318	     165.327	     -22.340	     165.477	     -16.934	     118.752
	9.600000000	     -13.518	       2.337	     -22.266	     154.807	     -22.286	     154.924	     -17.783	     112.447
	9.800000000	     -14.028	       0.044	     -22.221	     144.356	     -22.247	     144.527	     -18.634	     104.721
	10.000000000	     -14.442	      -1.738	     -22.194	     133.996	     -22.220	     134.172	     -19.523	      96.934
	10.200000000	     -14.761	      -2.836	     -22.180	     123.716	     -22.206	     123.915	     -20.424	      86.777
	10.400000000	     -15.043	      -3.542	     -22.177	     113.521	     -22.199	     113.688	     -21.081	      75.335
	10.600000000	     -15.144	      -3.922	     -22.184	     103.429	     -22.210	     103.576	     -21.794	      62.123
	10.800000000	     -15.148	      -3.812	     -22.218	      93.491	     -22.232	      93.485	     -22.068	      47.751
	11.000000000	     -15.017	      -3.281	     -22.258	      83.573	     -22.271	      83.581	     -21.913	      34.918
	11.200000000	     -14.820	      -3.038	     -22.290	      73.713	     -22.304	      73.715	     -21.557	      22.740
	11.400000000	     -14.508	      -2.647	     -22.336	      63.907	     -22.346	      63.910	     -20.959	      12.354
	11.600000000	     -14.081	      -2.247	     -22.391	      54.151	     -22.398	      54.151	     -20.339	       3.988
	11.800000000	     -13.662	      -1.907	     -22.451	      44.468	     -22.461	      44.456	     -19.684	      -3.150
	12.000000000	     -13.173	      -2.215	     -22.518	      34.924	     -22.529	      34.899	     -19.131	      -8.217
	12.200000000	     -12.646	      -2.163	     -22.578	      25.443	     -22.579	      25.312	     -18.638	     -13.122
	12.400000000	     -12.185	      -2.593	     -22.651	      16.035	     -22.650	      15.928	     -18.146	     -16.434
	12.600000000	     -11.712	      -2.993	     -22.725	       6.795	     -22.722	       6.682	     -17.946	     -19.432
	12.800000000	     -11.305	      -3.382	     -22.790	      -2.287	     -22.789	      -2.405	     -17.715	     -22.113
	13.000000000	     -10.923	      -4.239	     -22.841	     -11.325	     -22.840	     -11.424	     -17.585	     -24.103
	13.200000000	     -10.545	      -5.014	     -22.885	     -20.243	     -22.884	     -20.323	     -17.513	     -26.240
	13.400000000	     -10.238	      -5.878	     -22.927	     -29.108	     -22.924	     -29.237	     -17.482	     -28.401
	13.600000000	      -9.984	      -6.995	     -22.953	     -37.879	     -22.954	     -37.993	     -17.455	     -30.005
	13.800000000	      -9.740	      -7.879	     -22.983	     -46.583	     -22.977	     -46.716	     -17.584	     -31.633
	14.000000000	      -9.565	      -9.056	     -22.994	     -55.240	     -22.991	     -55.360	     -17.680	     -33.368
	14.200000000	      -9.398	     -10.105	     -22.996	     -63.840	     -22.996	     -63.970	     -17.934	     -35.199
	14.400000000	      -9.269	     -11.218	     -22.999	     -72.451	     -22.996	     -72.570	     -18.083	     -37.549
	14.600000000	      -9.185	     -12.508	     -22.993	     -80.960	     -22.991	     -81.080	     -18.374	     -38.641
	14.800000000	      -9.111	     -13.945	     -22.984	     -89.455	     -22.985	     -89.556	     -18.670	     -39.111
	15.000000000	      -9.128	     -15.304	     -22.970	     -97.909	     -22.969	     -98.022	     -18.996	     -40.775
	15.200000000	      -9.160	     -17.133	     -22.952	    -106.337	     -22.953	    -106.468	     -19.310	     -41.915
	15.400000000	      -9.249	     -19.064	     -22.931	    -114.714	     -22.930	    -114.838	     -19.784	     -43.187
	15.600000000	      -9.353	     -21.299	     -22.900	    -123.188	     -22.909	    -123.203	     -20.229	     -43.750
	15.800000000	      -9.497	     -23.993	     -22.860	    -131.471	     -22.875	    -131.485	     -20.831	     -44.432
	16.000000000	      -9.692	     -27.008	     -22.824	    -139.786	     -22.834	    -139.788	     -21.418	     -44.380
	16.200000000	      -9.842	     -30.231	     -22.766	    -148.040	     -22.784	    -148.025	     -22.143	     -44.337
	16.400000000	     -10.052	     -33.891	     -22.701	    -156.392	     -22.716	    -156.370	     -22.950	     -44.430
	16.600000000	     -10.264	     -37.687	     -22.624	    -164.840	     -22.643	    -164.797	     -24.064	     -44.542
	16.800000000	     -10.367	     -41.702	     -22.541	    -173.513	     -22.558	    -173.498	     -25.281	     -45.366
	17.000000000	     -10.498	     -45.834	     -22.503	     177.548	     -22.520	     177.578	     -26.457	     -43.840
	17.200000000	     -10.576	     -50.085	     -22.533	     168.661	     -22.549	     168.681	     -27.229	     -43.963
	17.400000000	     -10.624	     -54.757	     -22.596	     160.240	     -22.612	     160.267	     -29.530	     -46.147
	17.600000000	     -10.602	     -58.695	     -22.592	     151.999	     -22.607	     152.022	     -31.929	     -46.180
	17.800000000	     -10.571	     -63.230	     -22.609	     143.613	     -22.622	     143.623	     -35.603	     -43.280
	18.000000000	     -10.503	     -66.895	     -22.625	     135.270	     -22.641	     135.294	     -40.830	     -17.393
	18.200000000	     -10.435	     -70.830	     -22.643	     127.007	     -22.661	     127.025	     -44.883	      49.235
	18.400000000	     -10.327	     -74.347	     -22.666	     118.809	     -22.679	     118.820	     -37.700	      81.744
	18.600000000	     -10.243	     -77.532	     -22.681	     110.649	     -22.694	     110.678	     -33.681	      93.697
	18.800000000	     -10.215	     -80.400	     -22.691	     102.552	     -22.705	     102.577	     -30.497	      92.813
	19.000000000	     -10.187	     -83.132	     -22.695	      94.476	     -22.708	      94.495	     -28.300	      95.908
	19.200000000	     -10.215	     -85.507	     -22.679	      86.412	     -22.696	      86.460	     -26.886	      93.952
	19.400000000	     -10.155	     -87.661	     -22.661	      78.389	     -22.678	      78.458	     -25.451	      94.491
	19.600000000	     -10.146	     -91.194	     -22.588	      70.139	     -22.601	      70.206	     -23.640	      95.610
	19.800000000	     -10.623	     -92.678	     -22.631	      61.597	     -22.650	      61.688	     -21.805	      91.869
	20.000000000	     -10.759	     -93.277	     -22.639	      53.635	     -22.655	      53.728	     -21.081	      85.130
	20.200000000	     -10.863	     -94.732	     -22.619	      45.622	     -22.636	      45.686	     -20.164	      84.016
	20.400000000	     -10.994	     -96.506	     -22.575	      37.411	     -22.589	      37.485	     -19.328	      81.473
	20.600000000	     -11.277	    -100.796	     -22.552	      28.848	     -22.567	      28.938	     -18.600	      79.056
	20.800000000	     -11.962	    -103.322	     -22.586	      20.450	     -22.601	      20.519	     -17.953	      75.867
	21.000000000	     -12.553	    -105.040	     -22.614	      12.253	     -22.628	      12.303	     -17.469	      74.396
	21.200000000	     -13.246	    -106.878	     -22.625	       4.037	     -22.645	       4.079	     -16.854	      71.962
	21.400000000	     -14.034	    -108.644	     -22.638	      -4.181	     -22.650	      -4.141	     -16.444	      71.217
	21.600000000	     -14.785	    -110.823	     -22.644	     -12.532	     -22.664	     -12.488	     -16.054	      68.857
	21.800000000	     -15.568	    -112.530	     -22.672	     -20.869	     -22.686	     -20.804	     -15.726	      67.648
	22.000000000	     -16.404	    -114.343	     -22.694	     -29.195	     -22.713	     -29.146	     -15.375	      64.762
	22.200000000	     -17.085	    -114.861	     -22.714	     -37.635	     -22.735	     -37.558	     -15.168	      62.650
	22.400000000	     -17.619	    -116.844	     -22.748	     -46.190	     -22.764	     -46.147	     -14.933	      59.637
	22.600000000	     -18.086	    -118.333	     -22.807	     -54.870	     -22.823	     -54.790	     -14.892	      56.591
	22.800000000	     -18.333	    -120.169	     -22.903	     -63.696	     -22.917	     -63.621	     -14.786	      52.841
	23.000000000	     -18.206	    -122.352	     -23.080	     -72.503	     -23.096	     -72.428	     -14.771	      49.390
	23.200000000	     -18.031	    -123.229	     -23.272	     -80.855	     -23.288	     -80.771	     -14.531	      44.786
	23.400000000	     -17.499	    -126.292	     -23.541	     -89.405	     -23.563	     -89.322	     -14.437	      40.691
	23.600000000	     -17.111	    -128.932	     -23.992	     -96.690	     -24.013	     -96.584	     -14.199	      36.429
	23.800000000	     -16.364	    -126.929	     -24.162	    -100.767	     -24.186	    -100.709	     -14.029	      30.484
	24.000000000	     -15.138	    -128.154	     -23.735	    -107.421	     -23.757	    -107.323	     -13.606	      24.985
	24.200000000	     -13.920	    -132.169	     -23.568	    -116.647	     -23.582	    -116.625	     -13.645	      19.077
	24.400000000	     -12.850	    -136.762	     -23.592	    -125.845	     -23.604	    -125.806	     -13.330	      14.825
	24.600000000	     -11.962	    -142.028	     -23.677	    -134.777	     -23.690	    -134.768	     -13.143	      11.354
	24.800000000	     -11.023	    -146.334	     -23.798	    -143.593	     -23.811	    -143.550	     -12.813	       7.464
	25.000000000	     -10.288	    -152.148	     -23.935	    -152.294	     -23.947	    -152.259	     -12.550	       3.646