!File name = SN03_25C_5V_Phase10.s2p
!Date = 2/3/2014
!Time = 2:34 PM
!Test duration(min) = 0.07
!Test = SPars
!MPTS version = 7.120.8
!Comments = 
!set_LD1(binary) = 10
!set_LD2(binary) = 524277
!test = SPars
!date_code = 20140203
!file_name = SN03_25C_5V_Phase10.s2p
!VREF(V) = 5.000
!VREF(mA) = 0.002
# GHz   S   DB   R   50
!%	Freq(GHz)	     S11(dB)	    S11(deg)	     S21(dB)	    S21(deg)	     S12(dB)	    S12(deg)	     S22(dB)	    S22(deg)
	5.000000000	      -4.942	     174.194	     -25.183	      73.011	     -25.195	      73.004	      -1.909	    -131.535
	5.200000000	      -5.269	     163.679	     -23.707	      60.944	     -23.715	      60.939	      -2.267	    -138.659
	5.400000000	      -5.601	     152.922	     -22.305	      48.554	     -22.315	      48.541	      -2.694	    -146.182
	5.600000000	      -5.935	     142.042	     -21.018	      35.625	     -21.027	      35.615	      -3.211	    -154.353
	5.800000000	      -6.280	     131.149	     -19.819	      22.307	     -19.831	      22.296	      -3.793	    -162.917
	6.000000000	      -6.631	     120.457	     -18.744	       8.575	     -18.755	       8.582	      -4.450	    -171.892
	6.200000000	      -6.988	     110.009	     -17.801	      -5.261	     -17.812	      -5.267	      -5.170	     178.715
	6.400000000	      -7.378	      99.977	     -16.972	     -19.093	     -16.987	     -19.098	      -5.931	     169.196
	6.600000000	      -7.776	      90.436	     -16.237	     -32.859	     -16.251	     -32.857	      -6.736	     159.599
	6.800000000	      -8.201	      81.275	     -15.595	     -46.583	     -15.618	     -46.508	      -7.531	     150.035
	7.000000000	      -8.643	      72.738	     -15.045	     -60.013	     -15.066	     -59.953	      -8.338	     140.686
	7.200000000	      -9.103	      64.683	     -14.569	     -73.227	     -14.590	     -73.179	      -9.125	     131.332
	7.400000000	      -9.602	      57.228	     -14.155	     -86.203	     -14.175	     -86.162	      -9.897	     122.531
	7.600000000	     -10.071	      50.243	     -13.791	     -98.966	     -13.814	     -98.905	     -10.642	     113.857
	7.800000000	     -10.611	      43.991	     -13.478	    -111.455	     -13.500	    -111.401	     -11.383	     105.523
	8.000000000	     -11.103	      38.033	     -13.205	    -123.737	     -13.227	    -123.673	     -12.092	      97.475
	8.200000000	     -11.618	      32.548	     -12.963	    -135.793	     -12.979	    -135.765	     -12.820	      89.396
	8.400000000	     -12.124	      27.473	     -12.749	    -147.653	     -12.765	    -147.632	     -13.605	      81.525
	8.600000000	     -12.642	      22.763	     -12.565	    -159.331	     -12.579	    -159.316	     -14.405	      72.909
	8.800000000	     -13.138	      18.246	     -12.405	    -170.858	     -12.418	    -170.842	     -15.227	      63.801
	9.000000000	     -13.634	      14.105	     -12.268	     177.781	     -12.279	     177.789	     -16.073	      53.417
	9.200000000	     -14.107	      10.099	     -12.150	     166.570	     -12.161	     166.578	     -16.847	      41.972
	9.400000000	     -14.583	       6.797	     -12.053	     155.520	     -12.063	     155.539	     -17.498	      29.396
	9.600000000	     -14.971	       3.649	     -11.971	     144.581	     -11.984	     144.613	     -17.922	      14.979
	9.800000000	     -15.374	       1.234	     -11.906	     133.806	     -11.919	     133.858	     -18.017	       0.977
	10.000000000	     -15.671	      -0.787	     -11.854	     123.176	     -11.865	     123.209	     -18.001	     -12.955
	10.200000000	     -15.876	      -2.241	     -11.816	     112.676	     -11.828	     112.703	     -17.670	     -25.506
	10.400000000	     -16.073	      -3.453	     -11.784	     102.282	     -11.795	     102.309	     -17.309	     -36.346
	10.600000000	     -16.096	      -4.441	     -11.766	      92.020	     -11.777	      92.038	     -16.840	     -46.843
	10.800000000	     -16.056	      -5.060	     -11.755	      81.867	     -11.771	      81.909	     -16.416	     -55.503
	11.000000000	     -15.930	      -5.247	     -11.750	      71.822	     -11.765	      71.868	     -16.186	     -63.429
	11.200000000	     -15.782	      -5.627	     -11.744	      61.846	     -11.759	      61.886	     -15.999	     -70.783
	11.400000000	     -15.561	      -5.649	     -11.745	      51.936	     -11.759	      51.976	     -15.948	     -77.556
	11.600000000	     -15.249	      -5.318	     -11.747	      42.094	     -11.763	      42.133	     -16.057	     -83.948
	11.800000000	     -14.968	      -4.691	     -11.757	      32.309	     -11.772	      32.340	     -16.288	     -89.973
	12.000000000	     -14.599	      -4.400	     -11.768	      22.576	     -11.784	      22.614	     -16.775	     -95.907
	12.200000000	     -14.165	      -3.294	     -11.783	      12.893	     -11.793	      12.903	     -17.368	    -101.756
	12.400000000	     -13.767	      -2.462	     -11.806	       3.262	     -11.816	       3.270	     -18.266	    -106.949
	12.600000000	     -13.296	      -1.437	     -11.836	      -6.295	     -11.846	      -6.294	     -19.408	    -113.576
	12.800000000	     -12.846	      -0.347	     -11.869	     -15.762	     -11.880	     -15.755	     -20.791	    -119.575
	13.000000000	     -12.370	       0.081	     -11.906	     -25.155	     -11.917	     -25.152	     -22.625	    -126.392
	13.200000000	     -11.860	       0.425	     -11.948	     -34.457	     -11.957	     -34.447	     -24.856	    -133.904
	13.400000000	     -11.406	       0.484	     -11.987	     -43.681	     -11.998	     -43.671	     -27.629	    -142.455
	13.600000000	     -11.001	       0.104	     -12.028	     -52.822	     -12.038	     -52.820	     -31.831	    -155.012
	13.800000000	     -10.593	      -0.263	     -12.071	     -61.879	     -12.080	     -61.878	     -37.116	     173.070
	14.000000000	     -10.262	      -1.064	     -12.108	     -70.895	     -12.118	     -70.899	     -38.863	     106.799
	14.200000000	      -9.939	      -1.927	     -12.145	     -79.841	     -12.156	     -79.841	     -34.243	      72.764
	14.400000000	      -9.662	      -2.940	     -12.181	     -88.761	     -12.192	     -88.758	     -31.560	      55.513
	14.600000000	      -9.443	      -4.266	     -12.218	     -97.607	     -12.230	     -97.605	     -29.024	      48.212
	14.800000000	      -9.246	      -5.829	     -12.254	    -106.417	     -12.266	    -106.423	     -27.111	      43.593
	15.000000000	      -9.148	      -7.300	     -12.286	    -115.160	     -12.296	    -115.168	     -26.178	      40.616
	15.200000000	      -9.084	      -9.299	     -12.313	    -123.914	     -12.323	    -123.912	     -25.319	      38.529
	15.400000000	      -9.082	     -11.361	     -12.336	    -132.608	     -12.346	    -132.606	     -24.712	      39.158
	15.600000000	      -9.109	     -13.748	     -12.353	    -141.365	     -12.369	    -141.326	     -23.950	      39.780
	15.800000000	      -9.186	     -16.535	     -12.371	    -150.041	     -12.387	    -150.003	     -23.273	      41.659
	16.000000000	      -9.318	     -19.620	     -12.387	    -158.712	     -12.405	    -158.681	     -22.501	      42.839
	16.200000000	      -9.417	     -22.942	     -12.401	    -167.381	     -12.415	    -167.354	     -21.785	      44.219
	16.400000000	      -9.582	     -26.623	     -12.408	    -176.069	     -12.422	    -176.053	     -21.124	      45.152
	16.600000000	      -9.753	     -30.405	     -12.415	     175.251	     -12.428	     175.258	     -20.525	      46.626
	16.800000000	      -9.830	     -34.440	     -12.422	     166.517	     -12.437	     166.527	     -20.001	      47.396
	17.000000000	      -9.927	     -38.514	     -12.434	     157.727	     -12.449	     157.737	     -19.317	      46.600
	17.200000000	      -9.975	     -42.731	     -12.459	     148.908	     -12.474	     148.919	     -18.825	      43.613
	17.400000000	      -9.991	     -47.406	     -12.498	     140.156	     -12.514	     140.178	     -18.521	      43.030
	17.600000000	      -9.939	     -51.482	     -12.523	     131.488	     -12.540	     131.525	     -18.194	      41.093
	17.800000000	      -9.890	     -56.064	     -12.555	     122.748	     -12.572	     122.793	     -17.889	      39.112
	18.000000000	      -9.798	     -59.932	     -12.596	     114.062	     -12.615	     114.109	     -17.490	      36.997
	18.200000000	      -9.715	     -63.978	     -12.637	     105.422	     -12.654	     105.464	     -17.326	      34.505
	18.400000000	      -9.590	     -67.744	     -12.686	      96.821	     -12.701	      96.865	     -17.025	      31.690
	18.600000000	      -9.493	     -71.141	     -12.729	      88.272	     -12.746	      88.302	     -16.912	      28.710
	18.800000000	      -9.437	     -74.219	     -12.772	      79.785	     -12.789	      79.831	     -16.686	      25.518
	19.000000000	      -9.390	     -77.135	     -12.810	      71.310	     -12.825	      71.362	     -16.712	      22.326
	19.200000000	      -9.379	     -79.649	     -12.846	      62.996	     -12.848	      62.961	     -16.700	      18.143
	19.400000000	      -9.273	     -82.030	     -12.864	      54.650	     -12.867	      54.608	     -16.888	      14.688
	19.600000000	      -9.243	     -85.773	     -12.815	      46.166	     -12.822	      46.140	     -17.049	      12.643
	19.800000000	      -9.656	     -87.198	     -12.877	      37.233	     -12.882	      37.202	     -17.207	      10.044
	20.000000000	      -9.699	     -87.810	     -12.919	      28.890	     -12.926	      28.858	     -17.381	       5.937
	20.200000000	      -9.709	     -89.308	     -12.930	      20.513	     -12.935	      20.487	     -17.981	       4.290
	20.400000000	      -9.716	     -91.190	     -12.911	      11.986	     -12.915	      11.956	     -18.511	       3.418
	20.600000000	      -9.890	     -95.355	     -12.911	       3.100	     -12.915	       3.071	     -18.971	       2.953
	20.800000000	     -10.379	     -97.782	     -12.961	      -5.678	     -12.964	      -5.711	     -19.447	       1.905
	21.000000000	     -10.755	     -99.594	     -12.997	     -14.294	     -13.001	     -14.334	     -20.381	       1.753
	21.200000000	     -11.175	    -101.599	     -13.020	     -22.968	     -13.023	     -23.010	     -21.050	       3.961
	21.400000000	     -11.629	    -103.828	     -13.041	     -31.701	     -13.049	     -31.743	     -22.230	       7.267
	21.600000000	     -12.025	    -106.651	     -13.068	     -40.547	     -13.074	     -40.576	     -23.014	      10.896
	21.800000000	     -12.409	    -109.597	     -13.107	     -49.435	     -13.113	     -49.474	     -23.996	      17.384
	22.000000000	     -12.823	    -113.014	     -13.153	     -58.368	     -13.159	     -58.386	     -24.272	      23.180
	22.200000000	     -13.123	    -116.100	     -13.203	     -67.303	     -13.211	     -67.320	     -24.721	      30.073
	22.400000000	     -13.344	    -120.549	     -13.260	     -76.298	     -13.267	     -76.325	     -24.603	      35.459
	22.600000000	     -13.527	    -125.083	     -13.322	     -85.349	     -13.328	     -85.393	     -24.730	      39.326
	22.800000000	     -13.609	    -130.108	     -13.395	     -94.550	     -13.401	     -94.593	     -24.473	      41.222
	23.000000000	     -13.519	    -135.381	     -13.504	    -103.916	     -13.510	    -103.947	     -24.389	      44.047
	23.200000000	     -13.497	    -139.953	     -13.654	    -113.164	     -13.661	    -113.188	     -23.381	      43.192
	23.400000000	     -13.289	    -145.277	     -13.844	    -122.474	     -13.853	    -122.486	     -22.766	      43.020
	23.600000000	     -13.240	    -150.182	     -14.146	    -131.407	     -14.155	    -131.411	     -21.680	      40.817
	23.800000000	     -13.148	    -150.692	     -14.416	    -138.582	     -14.426	    -138.573	     -20.997	      33.161
	24.000000000	     -12.508	    -152.228	     -14.337	    -146.045	     -14.348	    -146.029	     -20.071	      26.991
	24.200000000	     -11.773	    -155.870	     -14.287	    -155.201	     -14.302	    -155.136	     -20.130	      21.571
	24.400000000	     -11.147	    -159.896	     -14.342	    -164.517	     -14.355	    -164.455	     -19.363	      19.398
	24.600000000	     -10.622	    -164.550	     -14.434	    -173.817	     -14.450	    -173.757	     -18.801	      18.033
	24.800000000	     -10.099	    -168.023	     -14.557	     176.892	     -14.573	     176.940	     -18.055	      15.531
	25.000000000	      -9.664	    -172.933	     -14.706	     167.575	     -14.720	     167.631	     -17.421	      12.854