!File name = SN03_25C_5V_Phase19.s2p
!Date = 2/3/2014
!Time = 2:35 PM
!Test duration(min) = 0.07
!Test = SPars
!MPTS version = 7.120.8
!Comments = 
!set_LD1(binary) = 19
!set_LD2(binary) = 524268
!test = SPars
!date_code = 20140203
!file_name = SN03_25C_5V_Phase19.s2p
!VREF(V) = 5.000
!VREF(mA) = 0.002
# GHz   S   DB   R   50
!%	Freq(GHz)	     S11(dB)	    S11(deg)	     S21(dB)	    S21(deg)	     S12(dB)	    S12(deg)	     S22(dB)	    S22(deg)
	5.000000000	      -6.800	     161.267	     -31.808	      83.920	     -31.826	      83.880	      -5.235	    -122.715
	5.200000000	      -6.794	     149.304	     -30.252	      73.168	     -30.253	      73.157	      -5.738	    -126.973
	5.400000000	      -6.756	     136.942	     -28.720	      62.001	     -28.730	      62.000	      -6.284	    -131.296
	5.600000000	      -6.698	     124.299	     -27.276	      50.029	     -27.284	      50.034	      -6.903	    -135.926
	5.800000000	      -6.658	     111.437	     -25.877	      37.350	     -25.890	      37.385	      -7.544	    -140.651
	6.000000000	      -6.669	      98.583	     -24.587	      23.879	     -24.597	      23.882	      -8.224	    -145.508
	6.200000000	      -6.757	      85.788	     -23.427	       9.891	     -23.441	       9.871	      -8.924	    -150.647
	6.400000000	      -6.986	      73.155	     -22.387	      -4.531	     -22.400	      -4.575	      -9.617	    -155.852
	6.600000000	      -7.368	      60.948	     -21.472	     -19.320	     -21.485	     -19.342	     -10.308	    -161.027
	6.800000000	      -7.925	      49.225	     -20.685	     -34.534	     -20.715	     -34.403	     -10.925	    -166.480
	7.000000000	      -8.682	      38.499	     -20.067	     -49.598	     -20.095	     -49.489	     -11.492	    -171.888
	7.200000000	      -9.614	      28.976	     -19.585	     -64.547	     -19.611	     -64.435	     -12.014	    -177.614
	7.400000000	     -10.739	      21.041	     -19.231	     -79.203	     -19.260	     -79.088	     -12.433	     176.693
	7.600000000	     -11.936	      15.287	     -18.986	     -93.462	     -19.014	     -93.330	     -12.803	     170.751
	7.800000000	     -13.238	      11.877	     -18.827	    -107.201	     -18.857	    -107.083	     -13.142	     164.759
	8.000000000	     -14.373	      11.113	     -18.733	    -120.460	     -18.762	    -120.336	     -13.425	     158.643
	8.200000000	     -15.288	      12.599	     -18.685	    -133.214	     -18.709	    -133.097	     -13.747	     152.745
	8.400000000	     -15.792	      15.472	     -18.667	    -145.499	     -18.692	    -145.387	     -14.059	     147.294
	8.600000000	     -15.892	      18.281	     -18.665	    -157.378	     -18.686	    -157.269	     -14.450	     141.823
	8.800000000	     -15.649	      19.770	     -18.677	    -168.922	     -18.699	    -168.811	     -14.889	     136.452
	9.000000000	     -15.234	      19.749	     -18.697	     179.875	     -18.717	     179.985	     -15.425	     131.153
	9.200000000	     -14.751	      18.016	     -18.714	     168.920	     -18.735	     169.036	     -16.021	     125.666
	9.400000000	     -14.287	      15.514	     -18.730	     158.208	     -18.751	     158.325	     -16.677	     119.611
	9.600000000	     -13.811	      11.873	     -18.746	     147.652	     -18.768	     147.782	     -17.529	     113.156
	9.800000000	     -13.431	       7.962	     -18.759	     137.254	     -18.781	     137.409	     -18.387	     105.309
	10.000000000	     -13.071	       3.622	     -18.768	     126.999	     -18.794	     127.157	     -19.295	      97.466
	10.200000000	     -12.752	      -0.807	     -18.781	     116.856	     -18.805	     116.997	     -20.220	      87.349
	10.400000000	     -12.528	      -5.385	     -18.788	     106.786	     -18.813	     106.914	     -20.921	      75.996
	10.600000000	     -12.299	     -10.009	     -18.803	      96.810	     -18.822	      96.938	     -21.684	      62.921
	10.800000000	     -12.133	     -14.344	     -18.823	      86.991	     -18.839	      87.005	     -22.024	      48.674
	11.000000000	     -12.006	     -18.242	     -18.845	      77.181	     -18.858	      77.204	     -21.930	      35.883
	11.200000000	     -11.943	     -22.167	     -18.855	      67.402	     -18.869	      67.421	     -21.634	      23.733
	11.400000000	     -11.916	     -25.558	     -18.871	      57.690	     -18.884	      57.699	     -21.083	      13.335
	11.600000000	     -11.913	     -28.312	     -18.888	      48.021	     -18.901	      48.020	     -20.499	       5.008
	11.800000000	     -12.003	     -30.662	     -18.911	      38.386	     -18.923	      38.391	     -19.868	      -2.083
	12.000000000	     -12.082	     -32.690	     -18.930	      28.823	     -18.944	      28.846	     -19.328	      -6.994
	12.200000000	     -12.211	     -33.629	     -18.948	      19.331	     -18.949	      19.258	     -18.836	     -11.695
	12.400000000	     -12.402	     -34.368	     -18.968	       9.861	     -18.974	       9.786	     -18.332	     -14.787
	12.600000000	     -12.602	     -34.173	     -18.993	       0.471	     -18.994	       0.418	     -18.112	     -17.470
	12.800000000	     -12.858	     -33.330	     -19.008	      -8.819	     -19.013	      -8.867	     -17.845	     -19.874
	13.000000000	     -13.059	     -32.206	     -19.023	     -18.052	     -19.025	     -18.108	     -17.660	     -21.596
	13.200000000	     -13.206	     -30.216	     -19.034	     -27.222	     -19.035	     -27.280	     -17.529	     -23.494
	13.400000000	     -13.339	     -27.991	     -19.044	     -36.384	     -19.042	     -36.459	     -17.427	     -25.533
	13.600000000	     -13.429	     -25.803	     -19.050	     -45.454	     -19.054	     -45.532	     -17.313	     -27.095
	13.800000000	     -13.428	     -23.033	     -19.066	     -54.477	     -19.064	     -54.559	     -17.355	     -28.771
	14.000000000	     -13.409	     -20.766	     -19.070	     -63.472	     -19.072	     -63.551	     -17.362	     -30.685
	14.200000000	     -13.301	     -18.358	     -19.074	     -72.401	     -19.077	     -72.483	     -17.528	     -32.785
	14.400000000	     -13.168	     -16.199	     -19.082	     -81.320	     -19.084	     -81.386	     -17.601	     -35.534
	14.600000000	     -13.020	     -14.618	     -19.091	     -90.142	     -19.094	     -90.228	     -17.815	     -37.163
	14.800000000	     -12.832	     -13.485	     -19.099	     -98.956	     -19.103	     -99.017	     -18.047	     -38.351
	15.000000000	     -12.737	     -12.492	     -19.111	    -107.688	     -19.112	    -107.760	     -18.334	     -40.700
	15.200000000	     -12.634	     -12.365	     -19.117	    -116.407	     -19.121	    -116.493	     -18.626	     -42.632
	15.400000000	     -12.595	     -12.511	     -19.125	    -125.046	     -19.127	    -125.139	     -19.094	     -44.758
	15.600000000	     -12.561	     -13.208	     -19.125	    -133.777	     -19.137	    -133.765	     -19.560	     -46.202
	15.800000000	     -12.590	     -14.635	     -19.129	    -142.332	     -19.141	    -142.324	     -20.202	     -47.818
	16.000000000	     -12.681	     -16.477	     -19.127	    -150.848	     -19.141	    -150.849	     -20.860	     -48.707
	16.200000000	     -12.725	     -18.762	     -19.115	    -159.365	     -19.129	    -159.320	     -21.683	     -49.675
	16.400000000	     -12.868	     -21.579	     -19.095	    -167.903	     -19.112	    -167.864	     -22.619	     -50.773
	16.600000000	     -13.022	     -24.594	     -19.066	    -176.487	     -19.083	    -176.443	     -23.902	     -52.092
	16.800000000	     -13.047	     -28.154	     -19.036	     174.767	     -19.051	     174.816	     -25.344	     -54.077
	17.000000000	     -13.122	     -31.801	     -19.029	     165.882	     -19.047	     165.923	     -26.858	     -53.308
	17.200000000	     -13.144	     -35.718	     -19.065	     157.009	     -19.082	     157.063	     -27.942	     -53.428
	17.400000000	     -13.149	     -40.230	     -19.127	     148.383	     -19.144	     148.431	     -30.691	     -57.487
	17.600000000	     -13.030	     -43.980	     -19.146	     139.909	     -19.162	     139.955	     -33.865	     -59.238
	17.800000000	     -12.937	     -48.510	     -19.175	     131.308	     -19.193	     131.366	     -39.496	     -59.104
	18.000000000	     -12.752	     -52.049	     -19.210	     122.738	     -19.229	     122.779	     -50.650	      14.876
	18.200000000	     -12.580	     -55.922	     -19.252	     114.219	     -19.269	     114.261	     -40.961	      97.074
	18.400000000	     -12.335	     -59.454	     -19.296	     105.721	     -19.313	     105.768	     -34.722	      95.415
	18.600000000	     -12.104	     -62.545	     -19.337	      97.263	     -19.354	      97.318	     -31.431	      97.736
	18.800000000	     -11.926	     -65.219	     -19.382	      88.864	     -19.397	      88.917	     -28.861	      93.748
	19.000000000	     -11.739	     -67.768	     -19.418	      80.500	     -19.433	      80.547	     -27.046	      94.452
	19.200000000	     -11.595	     -69.858	     -19.450	      72.198	     -19.461	      72.240	     -25.886	      91.566
	19.400000000	     -11.343	     -71.819	     -19.465	      63.913	     -19.477	      63.930	     -24.711	      91.324
	19.600000000	     -11.175	     -75.392	     -19.429	      55.371	     -19.445	      55.405	     -23.155	      92.180
	19.800000000	     -11.473	     -76.202	     -19.522	      46.606	     -19.538	      46.650	     -21.504	      88.680
	20.000000000	     -11.390	     -76.325	     -19.574	      38.407	     -19.588	      38.461	     -20.871	      82.146
	20.200000000	     -11.264	     -77.526	     -19.595	      30.177	     -19.608	      30.205	     -20.068	      81.217
	20.400000000	     -11.152	     -79.057	     -19.592	      21.772	     -19.605	      21.823	     -19.308	      78.937
	20.600000000	     -11.255	     -83.175	     -19.608	      13.058	     -19.619	      13.078	     -18.637	      76.772
	20.800000000	     -11.685	     -85.159	     -19.675	       4.424	     -19.685	       4.453	     -18.034	      73.842
	21.000000000	     -11.991	     -86.681	     -19.733	      -4.006	     -19.746	      -3.974	     -17.596	      72.652
	21.200000000	     -12.366	     -88.365	     -19.776	     -12.454	     -19.787	     -12.423	     -17.004	      70.495
	21.400000000	     -12.805	     -90.156	     -19.814	     -20.928	     -19.829	     -20.868	     -16.620	      70.025
	21.600000000	     -13.211	     -92.736	     -19.853	     -29.475	     -19.866	     -29.428	     -16.242	      67.894
	21.800000000	     -13.631	     -95.380	     -19.900	     -38.075	     -19.913	     -38.045	     -15.929	      66.909
	22.000000000	     -14.109	     -98.430	     -19.947	     -46.701	     -19.965	     -46.653	     -15.581	      64.216
	22.200000000	     -14.464	    -101.156	     -19.993	     -55.352	     -20.011	     -55.319	     -15.374	      62.288
	22.400000000	     -14.794	    -105.456	     -20.042	     -64.167	     -20.056	     -64.123	     -15.141	      59.423
	22.600000000	     -15.107	    -109.722	     -20.103	     -73.091	     -20.119	     -73.043	     -15.098	      56.516
	22.800000000	     -15.324	    -114.608	     -20.184	     -82.223	     -20.199	     -82.181	     -14.994	      52.883
	23.000000000	     -15.340	    -119.978	     -20.328	     -91.531	     -20.343	     -91.489	     -14.977	      49.570
	23.200000000	     -15.388	    -124.288	     -20.516	    -100.559	     -20.527	    -100.481	     -14.724	      45.074
	23.400000000	     -15.227	    -129.900	     -20.753	    -109.802	     -20.771	    -109.719	     -14.616	      41.102
	23.600000000	     -15.220	    -134.807	     -21.181	    -118.361	     -21.197	    -118.301	     -14.359	      36.873
	23.800000000	     -15.000	    -134.904	     -21.527	    -124.016	     -21.544	    -123.975	     -14.174	      30.844
	24.000000000	     -14.262	    -136.757	     -21.297	    -130.497	     -21.313	    -130.431	     -13.752	      25.289
	24.200000000	     -13.444	    -140.859	     -21.158	    -139.586	     -21.170	    -139.552	     -13.801	      19.411
	24.400000000	     -12.719	    -145.267	     -21.183	    -148.932	     -21.196	    -148.899	     -13.481	      15.217
	24.600000000	     -12.121	    -150.229	     -21.262	    -158.203	     -21.276	    -158.182	     -13.287	      11.776
	24.800000000	     -11.452	    -153.898	     -21.378	    -167.458	     -21.392	    -167.433	     -12.952	       7.926
	25.000000000	     -10.929	    -159.113	     -21.525	    -176.642	     -21.536	    -176.620	     -12.683	       4.131