!File name = SN03_25C_5V_Phase13.s2p
!Date = 2/3/2014
!Time = 2:35 PM
!Test duration(min) = 0.07
!Test = SPars
!MPTS version = 7.120.8
!Comments = 
!set_LD1(binary) = 13
!set_LD2(binary) = 524274
!test = SPars
!date_code = 20140203
!file_name = SN03_25C_5V_Phase13.s2p
!VREF(V) = 5.000
!VREF(mA) = 0.002
# GHz   S   DB   R   50
!%	Freq(GHz)	     S11(dB)	    S11(deg)	     S21(dB)	    S21(deg)	     S12(dB)	    S12(deg)	     S22(dB)	    S22(deg)
	5.000000000	      -6.303	     166.419	     -27.043	      75.896	     -27.049	      75.865	      -1.918	    -131.384
	5.200000000	      -6.467	     155.675	     -25.574	      63.711	     -25.587	      63.710	      -2.274	    -138.446
	5.400000000	      -6.612	     144.774	     -24.188	      51.237	     -24.199	      51.214	      -2.698	    -145.898
	5.600000000	      -6.736	     133.855	     -22.917	      38.192	     -22.932	      38.190	      -3.208	    -153.978
	5.800000000	      -6.855	     123.033	     -21.741	      24.795	     -21.754	      24.764	      -3.779	    -162.437
	6.000000000	      -6.974	     112.511	     -20.692	      10.998	     -20.704	      10.990	      -4.419	    -171.298
	6.200000000	      -7.096	     102.321	     -19.777	      -2.911	     -19.790	      -2.922	      -5.112	     179.421
	6.400000000	      -7.251	      92.562	     -18.977	     -16.798	     -18.991	     -16.800	      -5.840	     169.997
	6.600000000	      -7.424	      83.302	     -18.270	     -30.583	     -18.285	     -30.592	      -6.604	     160.464
	6.800000000	      -7.625	      74.391	     -17.654	     -44.360	     -17.681	     -44.248	      -7.350	     150.905
	7.000000000	      -7.851	      66.048	     -17.133	     -57.786	     -17.158	     -57.694	      -8.103	     141.492
	7.200000000	      -8.098	      58.117	     -16.683	     -70.983	     -16.708	     -70.909	      -8.835	     131.994
	7.400000000	      -8.391	      50.665	     -16.292	     -83.953	     -16.319	     -83.862	      -9.551	     122.949
	7.600000000	      -8.664	      43.606	     -15.955	     -96.665	     -15.982	     -96.578	     -10.245	     113.962
	7.800000000	      -9.009	      37.105	     -15.665	    -109.114	     -15.688	    -109.034	     -10.944	     105.210
	8.000000000	      -9.322	      30.837	     -15.410	    -121.346	     -15.435	    -121.260	     -11.623	      96.687
	8.200000000	      -9.667	      24.893	     -15.186	    -133.367	     -15.207	    -133.307	     -12.335	      88.087
	8.400000000	     -10.017	      19.299	     -14.989	    -145.192	     -15.011	    -145.125	     -13.113	      79.661
	8.600000000	     -10.391	      13.975	     -14.822	    -156.830	     -14.839	    -156.776	     -13.914	      70.513
	8.800000000	     -10.761	       8.853	     -14.679	    -168.317	     -14.695	    -168.263	     -14.743	      60.892
	9.000000000	     -11.143	       4.056	     -14.561	    -179.653	     -14.575	    -179.604	     -15.600	      50.069
	9.200000000	     -11.515	      -0.605	     -14.458	     169.161	     -14.473	     169.208	     -16.381	      38.288
	9.400000000	     -11.905	      -4.688	     -14.379	     158.131	     -14.394	     158.195	     -17.045	      25.550
	9.600000000	     -12.241	      -8.538	     -14.317	     147.231	     -14.333	     147.295	     -17.479	      11.181
	9.800000000	     -12.608	     -11.851	     -14.272	     136.490	     -14.289	     136.572	     -17.606	      -2.562
	10.000000000	     -12.913	     -14.752	     -14.238	     125.877	     -14.254	     125.978	     -17.629	     -16.165
	10.200000000	     -13.175	     -17.092	     -14.221	     115.431	     -14.237	     115.503	     -17.361	     -28.297
	10.400000000	     -13.438	     -19.158	     -14.207	     105.080	     -14.224	     105.143	     -17.071	     -38.749
	10.600000000	     -13.585	     -20.795	     -14.212	      94.872	     -14.226	      94.932	     -16.666	     -48.822
	10.800000000	     -13.695	     -21.910	     -14.222	      84.801	     -14.239	      84.835	     -16.299	     -57.052
	11.000000000	     -13.741	     -22.454	     -14.237	      74.821	     -14.252	      74.853	     -16.114	     -64.543
	11.200000000	     -13.748	     -23.064	     -14.251	      64.908	     -14.266	      64.948	     -15.959	     -71.430
	11.400000000	     -13.690	     -23.168	     -14.273	      55.082	     -14.288	      55.114	     -15.926	     -77.702
	11.600000000	     -13.551	     -22.849	     -14.297	      45.336	     -14.313	      45.355	     -16.036	     -83.551
	11.800000000	     -13.427	     -22.364	     -14.324	      35.651	     -14.342	      35.670	     -16.242	     -89.008
	12.000000000	     -13.207	     -22.050	     -14.356	      26.040	     -14.371	      26.068	     -16.676	     -94.304
	12.200000000	     -12.951	     -21.055	     -14.384	      16.497	     -14.394	      16.489	     -17.181	     -99.514
	12.400000000	     -12.717	     -20.413	     -14.420	       7.005	     -14.430	       7.010	     -17.941	    -104.080
	12.600000000	     -12.436	     -19.529	     -14.461	      -2.380	     -14.470	      -2.385	     -18.889	    -110.005
	12.800000000	     -12.190	     -18.638	     -14.500	     -11.663	     -14.509	     -11.682	     -19.992	    -115.445
	13.000000000	     -11.910	     -18.243	     -14.538	     -20.885	     -14.549	     -20.884	     -21.422	    -121.574
	13.200000000	     -11.605	     -17.787	     -14.575	     -29.993	     -14.586	     -29.995	     -23.053	    -128.492
	13.400000000	     -11.345	     -17.622	     -14.611	     -39.042	     -14.620	     -39.057	     -24.940	    -136.268
	13.600000000	     -11.122	     -17.906	     -14.642	     -48.002	     -14.651	     -48.024	     -27.480	    -146.288
	13.800000000	     -10.898	     -18.040	     -14.674	     -56.884	     -14.681	     -56.912	     -30.246	    -163.605
	14.000000000	     -10.737	     -18.717	     -14.695	     -65.729	     -14.703	     -65.754	     -33.002	     169.848
	14.200000000	     -10.586	     -19.370	     -14.714	     -74.524	     -14.723	     -74.542	     -33.219	     133.819
	14.400000000	     -10.480	     -20.199	     -14.730	     -83.285	     -14.738	     -83.308	     -32.129	     106.267
	14.600000000	     -10.422	     -21.393	     -14.741	     -92.005	     -14.750	     -92.016	     -29.536	      86.894
	14.800000000	     -10.385	     -22.804	     -14.751	    -100.686	     -14.762	    -100.704	     -27.183	      74.595
	15.000000000	     -10.467	     -24.291	     -14.758	    -109.344	     -14.768	    -109.358	     -25.707	      67.961
	15.200000000	     -10.574	     -26.338	     -14.758	    -117.989	     -14.767	    -118.007	     -24.380	      62.296
	15.400000000	     -10.767	     -28.553	     -14.754	    -126.614	     -14.763	    -126.631	     -23.276	      59.421
	15.600000000	     -10.994	     -31.115	     -14.745	    -135.300	     -14.761	    -135.268	     -22.200	      56.315
	15.800000000	     -11.282	     -34.228	     -14.741	    -143.925	     -14.757	    -143.896	     -21.276	      54.454
	16.000000000	     -11.647	     -37.756	     -14.735	    -152.513	     -14.751	    -152.483	     -20.408	      52.223
	16.200000000	     -11.984	     -41.422	     -14.719	    -161.124	     -14.736	    -161.064	     -19.671	      50.434
	16.400000000	     -12.409	     -45.721	     -14.698	    -169.730	     -14.715	    -169.687	     -19.045	      48.618
	16.600000000	     -12.868	     -50.135	     -14.672	    -178.356	     -14.689	    -178.326	     -18.532	      47.499
	16.800000000	     -13.202	     -54.533	     -14.645	     172.915	     -14.663	     172.945	     -18.137	      46.137
	17.000000000	     -13.586	     -59.053	     -14.634	     164.079	     -14.652	     164.111	     -17.644	      43.819
	17.200000000	     -13.905	     -63.655	     -14.644	     155.230	     -14.662	     155.278	     -17.307	      39.934
	17.400000000	     -14.169	     -68.708	     -14.670	     146.553	     -14.689	     146.593	     -17.151	      38.154
	17.600000000	     -14.391	     -72.519	     -14.671	     137.961	     -14.690	     138.011	     -16.978	      35.320
	17.800000000	     -14.581	     -77.029	     -14.678	     129.287	     -14.696	     129.339	     -16.839	      32.612
	18.000000000	     -14.766	     -79.920	     -14.689	     120.630	     -14.707	     120.680	     -16.623	      30.040
	18.200000000	     -14.940	     -82.967	     -14.697	     111.991	     -14.716	     112.041	     -16.618	      27.110
	18.400000000	     -15.040	     -85.038	     -14.710	     103.384	     -14.728	     103.450	     -16.478	      24.105
	18.600000000	     -15.180	     -86.272	     -14.717	      94.795	     -14.735	      94.840	     -16.509	      20.950
	18.800000000	     -15.387	     -86.749	     -14.725	      86.220	     -14.744	      86.279	     -16.422	      17.815
	19.000000000	     -15.560	     -86.645	     -14.727	      77.641	     -14.745	      77.700	     -16.576	      14.552
	19.200000000	     -15.772	     -85.585	     -14.734	      69.166	     -14.739	      69.141	     -16.656	      10.495
	19.400000000	     -15.779	     -83.606	     -14.722	      60.665	     -14.727	      60.634	     -16.946	       6.991
	19.600000000	     -15.746	     -83.749	     -14.643	      51.906	     -14.653	      51.899	     -17.225	       4.947
	19.800000000	     -16.364	     -79.948	     -14.699	      42.745	     -14.707	      42.731	     -17.518	       2.430
	20.000000000	     -16.378	     -74.777	     -14.732	      34.183	     -14.742	      34.187	     -17.777	      -1.409
	20.200000000	     -16.136	     -70.812	     -14.738	      25.588	     -14.747	      25.586	     -18.512	      -3.088
	20.400000000	     -15.806	     -67.322	     -14.721	      16.866	     -14.731	      16.857	     -19.192	      -3.889
	20.600000000	     -15.694	     -67.467	     -14.725	       7.826	     -14.733	       7.806	     -19.819	      -4.177
	20.800000000	     -15.830	     -64.401	     -14.779	      -1.135	     -14.786	      -1.161	     -20.468	      -4.958
	21.000000000	     -15.649	     -61.596	     -14.831	      -9.947	     -14.836	      -9.969	     -21.670	      -5.003
	21.200000000	     -15.438	     -59.319	     -14.873	     -18.741	     -14.880	     -18.773	     -22.656	      -1.772
	21.400000000	     -15.210	     -57.790	     -14.916	     -27.557	     -14.924	     -27.574	     -24.304	       3.040
	21.600000000	     -14.955	     -58.171	     -14.961	     -36.442	     -14.969	     -36.457	     -25.472	       9.714
	21.800000000	     -14.686	     -59.411	     -15.012	     -45.361	     -15.024	     -45.370	     -26.769	      21.492
	22.000000000	     -14.502	     -61.437	     -15.073	     -54.282	     -15.084	     -54.284	     -26.853	      32.691
	22.200000000	     -14.200	     -64.402	     -15.136	     -63.222	     -15.148	     -63.227	     -26.812	      44.800
	22.400000000	     -14.030	     -69.072	     -15.200	     -72.236	     -15.211	     -72.235	     -25.999	      52.516
	22.600000000	     -13.869	     -74.034	     -15.276	     -81.307	     -15.284	     -81.322	     -25.496	      57.792
	22.800000000	     -13.705	     -80.017	     -15.357	     -90.535	     -15.365	     -90.553	     -24.732	      59.268
	23.000000000	     -13.470	     -87.072	     -15.484	     -99.953	     -15.491	     -99.975	     -24.130	      61.488
	23.200000000	     -13.209	     -93.380	     -15.653	    -109.238	     -15.663	    -109.246	     -22.910	      58.205
	23.400000000	     -12.927	    -101.175	     -15.865	    -118.639	     -15.875	    -118.629	     -22.084	      56.265
	23.600000000	     -12.744	    -108.109	     -16.217	    -127.635	     -16.228	    -127.620	     -20.955	      52.029
	23.800000000	     -12.262	    -111.992	     -16.550	    -134.553	     -16.562	    -134.527	     -20.344	      43.751
	24.000000000	     -11.511	    -117.658	     -16.472	    -141.628	     -16.486	    -141.594	     -19.420	      36.681
	24.200000000	     -10.805	    -124.864	     -16.412	    -150.628	     -16.430	    -150.577	     -19.369	      31.032
	24.400000000	     -10.200	    -131.943	     -16.466	    -159.916	     -16.482	    -159.859	     -18.527	      27.510
	24.600000000	      -9.713	    -139.101	     -16.571	    -169.215	     -16.586	    -169.164	     -17.889	      24.975
	24.800000000	      -9.171	    -145.186	     -16.712	    -178.498	     -16.727	    -178.443	     -17.116	      21.371
	25.000000000	      -8.781	    -152.104	     -16.877	     172.268	     -16.894	     172.320	     -16.468	      17.696