!File name = SN03_25C_5V_Phase26.s2p
!Date = 2/3/2014
!Time = 2:36 PM
!Test duration(min) = 0.07
!Test = SPars
!MPTS version = 7.120.8
!Comments = 
!set_LD1(binary) = 26
!set_LD2(binary) = 524261
!test = SPars
!date_code = 20140203
!file_name = SN03_25C_5V_Phase26.s2p
!VREF(V) = 5.000
!VREF(mA) = 0.002
# GHz   S   DB   R   50
!%	Freq(GHz)	     S11(dB)	    S11(deg)	     S21(dB)	    S21(deg)	     S12(dB)	    S12(deg)	     S22(dB)	    S22(deg)
	5.000000000	      -4.945	     174.442	     -33.807	      66.632	     -33.813	      66.668	      -5.242	    -122.480
	5.200000000	      -5.265	     163.981	     -32.620	      54.909	     -32.626	      54.927	      -5.737	    -126.659
	5.400000000	      -5.589	     153.279	     -31.491	      43.278	     -31.508	      43.271	      -6.269	    -130.892
	5.600000000	      -5.910	     142.451	     -30.492	      31.121	     -30.507	      31.165	      -6.866	    -135.440
	5.800000000	      -6.237	     131.592	     -29.531	      18.873	     -29.548	      18.841	      -7.476	    -140.111
	6.000000000	      -6.568	     120.907	     -28.677	       6.060	     -28.688	       6.109	      -8.115	    -144.974
	6.200000000	      -6.904	     110.444	     -27.951	      -6.809	     -27.960	      -6.804	      -8.767	    -150.212
	6.400000000	      -7.270	     100.342	     -27.320	     -19.589	     -27.332	     -19.589	      -9.410	    -155.644
	6.600000000	      -7.649	      90.698	     -26.752	     -32.276	     -26.761	     -32.268	     -10.060	    -161.190
	6.800000000	      -8.054	      81.396	     -26.238	     -45.111	     -26.270	     -44.980	     -10.654	    -167.118
	7.000000000	      -8.479	      72.678	     -25.814	     -57.640	     -25.844	     -57.457	     -11.222	    -173.076
	7.200000000	      -8.924	      64.415	     -25.445	     -70.023	     -25.479	     -69.882	     -11.771	    -179.332
	7.400000000	      -9.414	      56.699	     -25.130	     -82.230	     -25.163	     -82.078	     -12.243	     174.534
	7.600000000	      -9.881	      49.425	     -24.858	     -94.310	     -24.888	     -94.152	     -12.683	     168.278
	7.800000000	     -10.427	      42.827	     -24.626	    -106.165	     -24.664	    -105.996	     -13.098	     162.148
	8.000000000	     -10.937	      36.511	     -24.432	    -117.846	     -24.467	    -117.687	     -13.456	     156.045
	8.200000000	     -11.488	      30.649	     -24.264	    -129.353	     -24.292	    -129.214	     -13.841	     150.259
	8.400000000	     -12.050	      25.250	     -24.121	    -140.698	     -24.147	    -140.527	     -14.211	     145.027
	8.600000000	     -12.638	      20.251	     -23.993	    -151.882	     -24.021	    -151.745	     -14.651	     139.827
	8.800000000	     -13.218	      15.566	     -23.897	    -162.952	     -23.923	    -162.819	     -15.126	     134.728
	9.000000000	     -13.801	      11.375	     -23.816	    -173.861	     -23.841	    -173.695	     -15.690	     129.711
	9.200000000	     -14.368	       7.423	     -23.752	     175.386	     -23.774	     175.536	     -16.300	     124.508
	9.400000000	     -14.934	       4.300	     -23.694	     164.752	     -23.717	     164.907	     -16.965	     118.721
	9.600000000	     -15.402	       1.471	     -23.658	     154.202	     -23.678	     154.373	     -17.819	     112.417
	9.800000000	     -15.888	      -0.539	     -23.623	     143.766	     -23.644	     143.928	     -18.673	     104.701
	10.000000000	     -16.261	      -2.006	     -23.601	     133.399	     -23.628	     133.550	     -19.567	      96.987
	10.200000000	     -16.525	      -2.737	     -23.602	     123.121	     -23.623	     123.245	     -20.470	      86.852
	10.400000000	     -16.763	      -3.105	     -23.601	     112.906	     -23.619	     113.035	     -21.134	      75.422
	10.600000000	     -16.800	      -3.197	     -23.613	     102.785	     -23.635	     102.959	     -21.853	      62.241
	10.800000000	     -16.736	      -2.763	     -23.656	      92.836	     -23.669	      92.845	     -22.125	      47.872
	11.000000000	     -16.532	      -1.902	     -23.704	      82.891	     -23.713	      82.897	     -21.968	      35.042
	11.200000000	     -16.271	      -1.376	     -23.740	      73.017	     -23.750	      73.009	     -21.608	      22.876
	11.400000000	     -15.893	      -0.706	     -23.790	      63.169	     -23.799	      63.187	     -21.001	      12.477
	11.600000000	     -15.389	      -0.021	     -23.844	      53.385	     -23.852	      53.385	     -20.372	       4.144
	11.800000000	     -14.904	       0.643	     -23.911	      43.658	     -23.917	      43.672	     -19.711	      -2.973
	12.000000000	     -14.348	       0.556	     -23.973	      34.088	     -23.989	      34.082	     -19.152	      -8.042
	12.200000000	     -13.747	       0.904	     -24.038	      24.558	     -24.035	      24.440	     -18.650	     -12.927
	12.400000000	     -13.223	       0.766	     -24.112	      15.085	     -24.110	      14.972	     -18.151	     -16.254
	12.600000000	     -12.684	       0.643	     -24.186	       5.802	     -24.182	       5.664	     -17.944	     -19.241
	12.800000000	     -12.213	       0.560	     -24.250	      -3.361	     -24.247	      -3.446	     -17.708	     -21.963
	13.000000000	     -11.771	      -0.043	     -24.301	     -12.416	     -24.300	     -12.543	     -17.573	     -23.991
	13.200000000	     -11.329	      -0.564	     -24.346	     -21.411	     -24.342	     -21.510	     -17.499	     -26.158
	13.400000000	     -10.963	      -1.171	     -24.382	     -30.338	     -24.379	     -30.474	     -17.468	     -28.357
	13.600000000	     -10.654	      -2.024	     -24.411	     -39.202	     -24.408	     -39.319	     -17.440	     -30.017
	13.800000000	     -10.347	      -2.665	     -24.442	     -47.942	     -24.434	     -48.082	     -17.571	     -31.670
	14.000000000	     -10.113	      -3.583	     -24.457	     -56.663	     -24.447	     -56.788	     -17.670	     -33.429
	14.200000000	      -9.884	      -4.388	     -24.458	     -65.302	     -24.459	     -65.438	     -17.934	     -35.275
	14.400000000	      -9.691	      -5.269	     -24.464	     -73.952	     -24.456	     -74.073	     -18.087	     -37.643
	14.600000000	      -9.543	      -6.330	     -24.461	     -82.498	     -24.456	     -82.634	     -18.383	     -38.732
	14.800000000	      -9.404	      -7.581	     -24.456	     -91.045	     -24.451	     -91.152	     -18.685	     -39.181
	15.000000000	      -9.355	      -8.706	     -24.446	     -99.533	     -24.443	     -99.650	     -19.016	     -40.799
	15.200000000	      -9.321	     -10.341	     -24.434	    -107.960	     -24.432	    -108.096	     -19.336	     -41.911
	15.400000000	      -9.342	     -12.053	     -24.420	    -116.332	     -24.415	    -116.450	     -19.813	     -43.137
	15.600000000	      -9.373	     -14.097	     -24.390	    -124.776	     -24.400	    -124.807	     -20.261	     -43.654
	15.800000000	      -9.454	     -16.600	     -24.362	    -133.044	     -24.372	    -133.042	     -20.862	     -44.258
	16.000000000	      -9.579	     -19.404	     -24.326	    -141.322	     -24.337	    -141.298	     -21.442	     -44.139
	16.200000000	      -9.664	     -22.488	     -24.273	    -149.503	     -24.289	    -149.474	     -22.162	     -44.019
	16.400000000	      -9.813	     -25.953	     -24.208	    -157.825	     -24.221	    -157.820	     -22.957	     -44.054
	16.600000000	      -9.961	     -29.560	     -24.130	    -166.242	     -24.140	    -166.218	     -24.055	     -44.092
	16.800000000	     -10.014	     -33.497	     -24.050	    -174.935	     -24.065	    -174.910	     -25.250	     -44.774
	17.000000000	     -10.096	     -37.507	     -24.021	     176.107	     -24.029	     176.116	     -26.396	     -43.298
	17.200000000	     -10.129	     -41.661	     -24.064	     167.229	     -24.078	     167.237	     -27.135	     -43.513
	17.400000000	     -10.146	     -46.231	     -24.138	     158.844	     -24.159	     158.862	     -29.401	     -45.747
	17.600000000	     -10.077	     -50.182	     -24.151	     150.692	     -24.161	     150.694	     -31.750	     -45.874
	17.800000000	     -10.019	     -54.693	     -24.169	     142.280	     -24.189	     142.338	     -35.313	     -43.207
	18.000000000	      -9.909	     -58.451	     -24.201	     134.022	     -24.215	     134.036	     -40.387	     -19.520
	18.200000000	      -9.804	     -62.455	     -24.235	     125.805	     -24.250	     125.802	     -45.222	      43.266
	18.400000000	      -9.658	     -66.117	     -24.271	     117.641	     -24.283	     117.685	     -38.120	      80.721
	18.600000000	      -9.527	     -69.468	     -24.294	     109.529	     -24.313	     109.557	     -33.963	      93.848
	18.800000000	      -9.446	     -72.476	     -24.321	     101.503	     -24.335	     101.499	     -30.697	      93.266
	19.000000000	      -9.361	     -75.373	     -24.339	      93.460	     -24.356	      93.465	     -28.437	      96.478
	19.200000000	      -9.319	     -77.902	     -24.340	      85.456	     -24.354	      85.509	     -26.990	      94.563
	19.400000000	      -9.184	     -80.311	     -24.334	      77.505	     -24.347	      77.572	     -25.524	      95.165
	19.600000000	      -9.118	     -84.003	     -24.276	      69.341	     -24.298	      69.367	     -23.680	      96.274
	19.800000000	      -9.473	     -85.563	     -24.340	      60.873	     -24.355	      60.958	     -21.821	      92.426
	20.000000000	      -9.478	     -86.403	     -24.361	      52.965	     -24.377	      53.093	     -21.082	      85.643
	20.200000000	      -9.455	     -88.157	     -24.357	      45.020	     -24.365	      45.113	     -20.153	      84.508
	20.400000000	      -9.431	     -90.305	     -24.327	      36.907	     -24.341	      36.980	     -19.304	      81.875
	20.600000000	      -9.575	     -94.789	     -24.320	      28.443	     -24.333	      28.538	     -18.569	      79.422
	20.800000000	     -10.039	     -97.595	     -24.374	      20.090	     -24.388	      20.154	     -17.915	      76.171
	21.000000000	     -10.395	     -99.876	     -24.415	      11.991	     -24.428	      12.070	     -17.430	      74.648
	21.200000000	     -10.819	    -102.393	     -24.446	       3.896	     -24.456	       3.999	     -16.812	      72.149
	21.400000000	     -11.286	    -105.139	     -24.469	      -4.200	     -24.489	      -4.110	     -16.402	      71.323
	21.600000000	     -11.721	    -108.489	     -24.496	     -12.391	     -24.510	     -12.312	     -16.011	      68.911
	21.800000000	     -12.164	    -111.857	     -24.531	     -20.603	     -24.551	     -20.501	     -15.688	      67.657
	22.000000000	     -12.642	    -115.682	     -24.565	     -28.812	     -24.585	     -28.737	     -15.338	      64.712
	22.200000000	     -13.035	    -118.999	     -24.596	     -37.092	     -24.612	     -37.007	     -15.131	      62.589
	22.400000000	     -13.335	    -123.554	     -24.638	     -45.580	     -24.654	     -45.538	     -14.900	      59.535
	22.600000000	     -13.611	    -128.069	     -24.713	     -54.262	     -24.727	     -54.187	     -14.862	      56.493
	22.800000000	     -13.777	    -132.911	     -24.834	     -63.093	     -24.851	     -62.953	     -14.759	      52.711
	23.000000000	     -13.754	    -137.773	     -25.074	     -71.853	     -25.093	     -71.742	     -14.748	      49.237
	23.200000000	     -13.787	    -141.860	     -25.327	     -79.944	     -25.348	     -79.823	     -14.509	      44.621
	23.400000000	     -13.582	    -146.568	     -25.680	     -88.110	     -25.700	     -88.007	     -14.423	      40.498
	23.600000000	     -13.502	    -151.072	     -26.234	     -94.400	     -26.255	     -94.276	     -14.193	      36.218
	23.800000000	     -13.396	    -151.556	     -26.316	     -96.767	     -26.331	     -96.696	     -14.031	      30.282
	24.000000000	     -12.827	    -152.971	     -25.666	    -103.381	     -25.691	    -103.289	     -13.613	      24.832
	24.200000000	     -12.123	    -156.028	     -25.455	    -113.102	     -25.466	    -113.104	     -13.651	      18.936
	24.400000000	     -11.480	    -159.503	     -25.497	    -122.394	     -25.506	    -122.373	     -13.339	      14.704
	24.600000000	     -10.929	    -163.743	     -25.587	    -131.256	     -25.599	    -131.229	     -13.154	      11.234
	24.800000000	     -10.357	    -166.841	     -25.707	    -139.862	     -25.721	    -139.849	     -12.828	       7.366
	25.000000000	      -9.871	    -171.522	     -25.838	    -148.354	     -25.853	    -148.323	     -12.567	       3.568