!File name = SN03_25C_5V_Phase29.s2p
!Date = 2/3/2014
!Time = 2:36 PM
!Test duration(min) = 0.07
!Test = SPars
!MPTS version = 7.120.8
!Comments = 
!set_LD1(binary) = 29
!set_LD2(binary) = 524258
!test = SPars
!date_code = 20140203
!file_name = SN03_25C_5V_Phase29.s2p
!VREF(V) = 5.000
!VREF(mA) = 0.002
# GHz   S   DB   R   50
!%	Freq(GHz)	     S11(dB)	    S11(deg)	     S21(dB)	    S21(deg)	     S12(dB)	    S12(deg)	     S22(dB)	    S22(deg)
	5.000000000	      -6.309	     166.610	     -35.434	      68.979	     -35.438	      68.848	      -5.242	    -122.452
	5.200000000	      -6.470	     155.907	     -34.254	      57.386	     -34.273	      57.329	      -5.736	    -126.626
	5.400000000	      -6.609	     145.051	     -33.154	      45.908	     -33.161	      45.865	      -6.267	    -130.845
	5.600000000	      -6.724	     134.178	     -32.188	      33.834	     -32.191	      33.879	      -6.861	    -135.395
	5.800000000	      -6.832	     123.382	     -31.246	      21.708	     -31.247	      21.628	      -7.469	    -140.061
	6.000000000	      -6.939	     112.873	     -30.417	       8.943	     -30.425	       8.936	      -8.104	    -144.924
	6.200000000	      -7.047	     102.674	     -29.719	      -3.904	     -29.727	      -3.944	      -8.752	    -150.175
	6.400000000	      -7.189	      92.877	     -29.131	     -16.662	     -29.142	     -16.641	      -9.392	    -155.623
	6.600000000	      -7.349	      83.561	     -28.603	     -29.225	     -28.612	     -29.224	     -10.037	    -161.189
	6.800000000	      -7.538	      74.569	     -28.125	     -42.033	     -28.155	     -41.857	     -10.628	    -167.147
	7.000000000	      -7.754	      66.127	     -27.746	     -54.473	     -27.777	     -54.313	     -11.196	    -173.149
	7.200000000	      -7.994	      58.082	     -27.415	     -66.781	     -27.447	     -66.601	     -11.745	    -179.449
	7.400000000	      -8.281	      50.502	     -27.142	     -78.892	     -27.178	     -78.741	     -12.220	     174.371
	7.600000000	      -8.554	      43.289	     -26.911	     -90.947	     -26.944	     -90.721	     -12.661	     168.069
	7.800000000	      -8.900	      36.631	     -26.724	    -102.688	     -26.754	    -102.510	     -13.079	     161.903
	8.000000000	      -9.222	      30.189	     -26.562	    -114.303	     -26.592	    -114.130	     -13.444	     155.756
	8.200000000	      -9.580	      24.071	     -26.432	    -125.767	     -26.453	    -125.578	     -13.837	     149.960
	8.400000000	      -9.954	      18.316	     -26.317	    -137.024	     -26.345	    -136.874	     -14.214	     144.717
	8.600000000	     -10.357	      12.855	     -26.227	    -148.183	     -26.245	    -148.008	     -14.661	     139.510
	8.800000000	     -10.760	       7.631	     -26.161	    -159.217	     -26.187	    -159.032	     -15.146	     134.425
	9.000000000	     -11.179	       2.775	     -26.118	    -170.036	     -26.140	    -169.860	     -15.718	     129.423
	9.200000000	     -11.592	      -1.887	     -26.081	     179.252	     -26.112	     179.357	     -16.338	     124.221
	9.400000000	     -12.022	      -5.939	     -26.060	     168.646	     -26.089	     168.809	     -17.008	     118.457
	9.600000000	     -12.392	      -9.699	     -26.054	     158.131	     -26.073	     158.299	     -17.868	     112.202
	9.800000000	     -12.794	     -12.910	     -26.053	     147.745	     -26.076	     147.884	     -18.725	     104.491
	10.000000000	     -13.138	     -15.645	     -26.071	     137.336	     -26.087	     137.523	     -19.628	      96.807
	10.200000000	     -13.432	     -17.768	     -26.099	     127.099	     -26.118	     127.286	     -20.531	      86.688
	10.400000000	     -13.728	     -19.564	     -26.127	     116.878	     -26.153	     117.039	     -21.194	      75.257
	10.600000000	     -13.901	     -20.867	     -26.178	     106.750	     -26.199	     106.918	     -21.911	      62.103
	10.800000000	     -14.029	     -21.583	     -26.252	      96.827	     -26.265	      96.845	     -22.176	      47.711
	11.000000000	     -14.078	     -21.645	     -26.333	      86.903	     -26.343	      86.896	     -22.011	      34.897
	11.200000000	     -14.066	     -21.741	     -26.402	      77.012	     -26.411	      77.017	     -21.636	      22.754
	11.400000000	     -13.967	     -21.354	     -26.484	      67.170	     -26.494	      67.210	     -21.022	      12.375
	11.600000000	     -13.764	     -20.605	     -26.568	      57.404	     -26.577	      57.439	     -20.386	       4.101
	11.800000000	     -13.553	     -19.787	     -26.660	      47.683	     -26.671	      47.710	     -19.712	      -3.023
	12.000000000	     -13.238	     -19.354	     -26.749	      38.172	     -26.768	      38.185	     -19.148	      -8.089
	12.200000000	     -12.881	     -18.416	     -26.842	      28.644	     -26.833	      28.534	     -18.636	     -12.963
	12.400000000	     -12.555	     -18.019	     -26.927	      19.199	     -26.923	      19.132	     -18.134	     -16.331
	12.600000000	     -12.200	     -17.533	     -27.018	       9.994	     -27.013	       9.883	     -17.920	     -19.339
	12.800000000	     -11.899	     -17.155	     -27.089	       0.945	     -27.080	       0.812	     -17.683	     -22.128
	13.000000000	     -11.594	     -17.307	     -27.144	      -8.069	     -27.141	      -8.173	     -17.552	     -24.206
	13.200000000	     -11.285	     -17.378	     -27.183	     -16.974	     -27.178	     -17.093	     -17.478	     -26.446
	13.400000000	     -11.041	     -17.688	     -27.211	     -25.908	     -27.198	     -26.028	     -17.455	     -28.718
	13.600000000	     -10.843	     -18.380	     -27.224	     -34.677	     -27.222	     -34.815	     -17.439	     -30.400
	13.800000000	     -10.655	     -18.851	     -27.238	     -43.386	     -27.237	     -43.515	     -17.581	     -32.117
	14.000000000	     -10.539	     -19.775	     -27.231	     -52.057	     -27.230	     -52.181	     -17.697	     -33.893
	14.200000000	     -10.434	     -20.594	     -27.217	     -60.637	     -27.208	     -60.757	     -17.972	     -35.776
	14.400000000	     -10.377	     -21.541	     -27.193	     -69.238	     -27.185	     -69.337	     -18.143	     -38.098
	14.600000000	     -10.369	     -22.754	     -27.156	     -77.700	     -27.154	     -77.826	     -18.457	     -39.139
	14.800000000	     -10.380	     -24.140	     -27.121	     -86.162	     -27.119	     -86.310	     -18.780	     -39.514
	15.000000000	     -10.506	     -25.558	     -27.073	     -94.578	     -27.070	     -94.704	     -19.128	     -41.038
	15.200000000	     -10.650	     -27.500	     -27.026	    -102.941	     -27.022	    -103.088	     -19.463	     -42.043
	15.400000000	     -10.878	     -29.593	     -26.973	    -111.247	     -26.967	    -111.399	     -19.951	     -43.128
	15.600000000	     -11.133	     -32.007	     -26.907	    -119.662	     -26.914	    -119.640	     -20.408	     -43.480
	15.800000000	     -11.443	     -34.990	     -26.845	    -127.814	     -26.854	    -127.823	     -21.019	     -43.922
	16.000000000	     -11.827	     -38.357	     -26.768	    -135.904	     -26.777	    -135.931	     -21.598	     -43.598
	16.200000000	     -12.177	     -41.860	     -26.663	    -143.902	     -26.675	    -143.883	     -22.318	     -43.231
	16.400000000	     -12.610	     -45.975	     -26.535	    -152.127	     -26.542	    -152.121	     -23.100	     -42.955
	16.600000000	     -13.070	     -50.227	     -26.370	    -160.507	     -26.382	    -160.489	     -24.184	     -42.724
	16.800000000	     -13.399	     -54.497	     -26.205	    -169.432	     -26.218	    -169.418	     -25.352	     -43.066
	17.000000000	     -13.778	     -58.964	     -26.139	    -178.761	     -26.154	    -178.775	     -26.449	     -41.320
	17.200000000	     -14.107	     -63.511	     -26.191	     172.082	     -26.210	     172.118	     -27.151	     -41.350
	17.400000000	     -14.398	     -68.485	     -26.295	     163.819	     -26.307	     163.847	     -29.366	     -42.950
	17.600000000	     -14.628	     -72.085	     -26.268	     155.849	     -26.292	     155.853	     -31.627	     -42.307
	17.800000000	     -14.828	     -76.449	     -26.264	     147.566	     -26.276	     147.649	     -34.961	     -38.262
	18.000000000	     -15.013	     -79.110	     -26.259	     139.407	     -26.272	     139.404	     -39.247	     -14.845
	18.200000000	     -15.181	     -81.955	     -26.249	     131.267	     -26.256	     131.278	     -43.296	      35.236
	18.400000000	     -15.270	     -83.718	     -26.235	     123.173	     -26.250	     123.210	     -37.945	      73.672
	18.600000000	     -15.381	     -84.669	     -26.208	     115.081	     -26.222	     115.082	     -34.132	      89.430
	18.800000000	     -15.555	     -84.810	     -26.188	     106.984	     -26.199	     107.001	     -30.885	      90.393
	19.000000000	     -15.673	     -84.444	     -26.158	      98.848	     -26.166	      98.922	     -28.644	      94.603
	19.200000000	     -15.822	     -83.158	     -26.115	      90.699	     -26.129	      90.772	     -27.196	      93.100
	19.400000000	     -15.757	     -81.055	     -26.071	      82.614	     -26.087	      82.700	     -25.715	      94.126
	19.600000000	     -15.651	     -81.084	     -25.973	      74.181	     -25.988	      74.333	     -23.848	      95.581
	19.800000000	     -16.142	     -77.436	     -26.014	      65.572	     -26.032	      65.655	     -21.963	      91.967
	20.000000000	     -16.065	     -72.727	     -26.007	      57.490	     -26.029	      57.583	     -21.209	      85.266
	20.200000000	     -15.772	     -69.398	     -25.986	      49.312	     -26.004	      49.372	     -20.268	      84.236
	20.400000000	     -15.405	     -66.578	     -25.949	      41.012	     -25.969	      41.113	     -19.405	      81.722
	20.600000000	     -15.282	     -67.414	     -25.930	      32.334	     -25.951	      32.462	     -18.664	      79.302
	20.800000000	     -15.431	     -65.094	     -25.985	      23.787	     -26.000	      23.883	     -18.004	      76.121
	21.000000000	     -15.299	     -63.036	     -26.042	      15.502	     -26.059	      15.629	     -17.513	      74.641
	21.200000000	     -15.177	     -61.277	     -26.090	       7.364	     -26.106	       7.456	     -16.890	      72.185
	21.400000000	     -15.039	     -60.078	     -26.120	      -0.701	     -26.140	      -0.637	     -16.475	      71.410
	21.600000000	     -14.886	     -60.548	     -26.147	      -8.896	     -26.171	      -8.853	     -16.082	      69.032
	21.800000000	     -14.706	     -61.712	     -26.193	     -17.133	     -26.207	     -17.055	     -15.753	      67.812
	22.000000000	     -14.601	     -63.584	     -26.230	     -25.334	     -26.247	     -25.243	     -15.400	      64.885
	22.200000000	     -14.357	     -66.227	     -26.258	     -33.628	     -26.284	     -33.548	     -15.189	      62.806
	22.400000000	     -14.232	     -70.638	     -26.310	     -42.174	     -26.319	     -42.049	     -14.956	      59.770
	22.600000000	     -14.107	     -75.250	     -26.392	     -50.839	     -26.407	     -50.741	     -14.915	      56.747
	22.800000000	     -13.961	     -80.898	     -26.530	     -59.701	     -26.545	     -59.608	     -14.810	      52.997
	23.000000000	     -13.724	     -87.609	     -26.791	     -68.468	     -26.810	     -68.382	     -14.797	      49.546
	23.200000000	     -13.446	     -93.588	     -27.071	     -76.574	     -27.089	     -76.456	     -14.557	      44.937
	23.400000000	     -13.123	    -101.146	     -27.481	     -84.887	     -27.497	     -84.767	     -14.467	      40.825
	23.600000000	     -12.897	    -108.035	     -28.169	     -90.964	     -28.188	     -90.833	     -14.236	      36.528
	23.800000000	     -12.400	    -112.080	     -28.323	     -91.920	     -28.341	     -91.751	     -14.075	      30.615
	24.000000000	     -11.688	    -117.689	     -27.540	     -97.693	     -27.554	     -97.541	     -13.655	      25.180
	24.200000000	     -10.988	    -124.601	     -27.221	    -107.337	     -27.234	    -107.289	     -13.689	      19.313
	24.400000000	     -10.366	    -131.476	     -27.221	    -116.721	     -27.230	    -116.700	     -13.372	      15.064
	24.600000000	      -9.862	    -138.461	     -27.289	    -125.643	     -27.305	    -125.641	     -13.182	      11.617
	24.800000000	      -9.294	    -144.426	     -27.410	    -134.312	     -27.420	    -134.289	     -12.850	       7.742
	25.000000000	      -8.881	    -151.271	     -27.546	    -142.745	     -27.552	    -142.729	     -12.587	       3.947