!File name = SN03_25C_5V_Phase4.s2p
!Date = 2/3/2014
!Time = 2:34 PM
!Test duration(min) = 0.07
!Test = SPars
!MPTS version = 7.120.8
!Comments = 
!set_LD1(binary) = 4
!set_LD2(binary) = 524283
!test = SPars
!date_code = 20140203
!file_name = SN03_25C_5V_Phase4.s2p
!VREF(V) = 5.000
!VREF(mA) = 0.002
# GHz   S   DB   R   50
!%	Freq(GHz)	     S11(dB)	    S11(deg)	     S21(dB)	    S21(deg)	     S12(dB)	    S12(deg)	     S22(dB)	    S22(deg)
	5.000000000	      -3.007	     172.217	     -21.991	      88.670	     -22.001	      88.671	      -1.831	    -132.554
	5.200000000	      -3.290	     160.938	     -20.270	      76.638	     -20.278	      76.636	      -2.191	    -140.115
	5.400000000	      -3.610	     149.263	     -18.611	      63.990	     -18.620	      63.994	      -2.635	    -148.217
	5.600000000	      -3.974	     137.293	     -17.058	      50.620	     -17.068	      50.626	      -3.195	    -157.117
	5.800000000	      -4.403	     125.156	     -15.603	      36.588	     -15.614	      36.592	      -3.859	    -166.560
	6.000000000	      -4.909	     113.077	     -14.282	      21.951	     -14.295	      21.969	      -4.654	    -176.520
	6.200000000	      -5.504	     101.221	     -13.108	       6.943	     -13.122	       6.952	      -5.579	     173.076
	6.400000000	      -6.225	      89.825	     -12.078	      -8.285	     -12.091	      -8.262	      -6.630	     162.679
	6.600000000	      -7.057	      79.184	     -11.181	     -23.617	     -11.195	     -23.602	      -7.818	     152.519
	6.800000000	      -8.017	      69.414	     -10.427	     -38.953	     -10.442	     -38.930	      -9.075	     142.988
	7.000000000	      -9.091	      61.046	      -9.804	     -54.112	      -9.818	     -54.091	     -10.415	     134.578
	7.200000000	     -10.250	      54.271	      -9.296	     -69.025	      -9.310	     -69.011	     -11.746	     127.285
	7.400000000	     -11.470	      49.533	      -8.892	     -83.621	      -8.905	     -83.608	     -13.002	     121.967
	7.600000000	     -12.578	      47.056	      -8.575	     -97.853	      -8.589	     -97.839	     -14.073	     117.929
	7.800000000	     -13.565	      46.956	      -8.334	    -111.659	      -8.349	    -111.646	     -14.900	     114.977
	8.000000000	     -14.157	      48.118	      -8.155	    -125.065	      -8.169	    -125.043	     -15.431	     112.248
	8.200000000	     -14.406	      49.709	      -8.019	    -138.049	      -8.028	    -138.078	     -15.781	     108.745
	8.400000000	     -14.332	      50.437	      -7.921	    -150.638	      -7.929	    -150.663	     -16.065	     104.622
	8.600000000	     -14.096	      49.866	      -7.849	    -162.865	      -7.855	    -162.897	     -16.357	      98.722
	8.800000000	     -13.793	      47.812	      -7.797	    -174.789	      -7.803	    -174.816	     -16.697	      91.478
	9.000000000	     -13.502	      44.751	      -7.759	     173.586	      -7.763	     173.554	     -17.167	      82.470
	9.200000000	     -13.253	      40.815	      -7.728	     162.205	      -7.733	     162.180	     -17.676	      71.839
	9.400000000	     -13.040	      36.723	      -7.710	     151.056	      -7.714	     151.031	     -18.173	      59.320
	9.600000000	     -12.839	      32.050	      -7.694	     140.079	      -7.699	     140.058	     -18.632	      44.200
	9.800000000	     -12.689	      27.580	      -7.688	     129.291	      -7.694	     129.281	     -18.752	      28.102
	10.000000000	     -12.535	      22.869	      -7.686	     118.676	      -7.692	     118.676	     -18.746	      11.571
	10.200000000	     -12.379	      18.216	      -7.692	     108.227	      -7.696	     108.212	     -18.331	      -4.346
	10.400000000	     -12.283	      13.606	      -7.693	      97.893	      -7.698	      97.874	     -17.811	     -18.391
	10.600000000	     -12.159	       8.959	      -7.704	      87.696	      -7.708	      87.672	     -17.171	     -31.933
	10.800000000	     -12.060	       4.556	      -7.711	      77.590	      -7.723	      77.633	     -16.548	     -43.302
	11.000000000	     -11.988	       0.594	      -7.719	      67.629	      -7.732	      67.671	     -16.138	     -53.493
	11.200000000	     -11.972	      -3.249	      -7.722	      57.733	      -7.736	      57.773	     -15.808	     -62.986
	11.400000000	     -11.979	      -6.522	      -7.726	      47.895	      -7.740	      47.935	     -15.644	     -71.792
	11.600000000	     -11.994	      -9.052	      -7.730	      38.113	      -7.744	      38.158	     -15.679	     -80.191
	11.800000000	     -12.082	     -10.845	      -7.732	      28.371	      -7.747	      28.416	     -15.883	     -88.227
	12.000000000	     -12.139	     -12.118	      -7.733	      18.647	      -7.748	      18.693	     -16.387	     -96.222
	12.200000000	     -12.159	     -12.014	      -7.737	       8.950	      -7.747	       8.966	     -17.072	    -104.283
	12.400000000	     -12.179	     -11.401	      -7.747	      -0.740	      -7.757	      -0.726	     -18.153	    -111.916
	12.600000000	     -12.070	      -9.898	      -7.768	     -10.387	      -7.777	     -10.374	     -19.582	    -121.336
	12.800000000	     -11.893	      -7.923	      -7.794	     -19.970	      -7.803	     -19.958	     -21.430	    -130.631
	13.000000000	     -11.580	      -6.374	      -7.827	     -29.500	      -7.837	     -29.481	     -23.980	    -142.116
	13.200000000	     -11.148	      -5.007	      -7.871	     -38.924	      -7.880	     -38.910	     -27.358	    -157.274
	13.400000000	     -10.705	      -4.224	      -7.917	     -48.281	      -7.927	     -48.269	     -31.872	     178.465
	13.600000000	     -10.262	      -4.160	      -7.968	     -57.537	      -7.976	     -57.530	     -35.835	     120.526
	13.800000000	      -9.805	      -4.429	      -8.022	     -66.691	      -8.031	     -66.682	     -32.381	      70.575
	14.000000000	      -9.417	      -5.418	      -8.073	     -75.777	      -8.083	     -75.773	     -29.047	      47.519
	14.200000000	      -9.048	      -6.705	      -8.126	     -84.765	      -8.136	     -84.764	     -27.001	      36.239
	14.400000000	      -8.739	      -8.335	      -8.176	     -93.699	      -8.186	     -93.703	     -25.866	      25.199
	14.600000000	      -8.500	     -10.433	      -8.225	    -102.536	      -8.236	    -102.542	     -25.028	      19.274
	14.800000000	      -8.307	     -12.892	      -8.268	    -111.315	      -8.279	    -111.324	     -24.508	      15.453
	15.000000000	      -8.233	     -15.372	      -8.303	    -120.027	      -8.313	    -120.031	     -24.709	      12.159
	15.200000000	      -8.212	     -18.403	      -8.326	    -128.730	      -8.336	    -128.740	     -25.011	      11.475
	15.400000000	      -8.275	     -21.577	      -8.341	    -137.409	      -8.351	    -137.408	     -25.645	      15.006
	15.600000000	      -8.388	     -25.070	      -8.348	    -146.143	      -8.360	    -146.118	     -25.879	      22.150
	15.800000000	      -8.566	     -28.964	      -8.352	    -154.862	      -8.365	    -154.835	     -25.705	      32.830
	16.000000000	      -8.815	     -33.177	      -8.355	    -163.571	      -8.368	    -163.545	     -24.720	      42.061
	16.200000000	      -9.052	     -37.552	      -8.356	    -172.278	      -8.363	    -172.293	     -23.434	      49.159
	16.400000000	      -9.362	     -42.353	      -8.348	     178.962	      -8.355	     178.944	     -22.080	      53.330
	16.600000000	      -9.696	     -47.226	      -8.338	     170.192	      -8.345	     170.172	     -20.775	      56.058
	16.800000000	      -9.955	     -52.088	      -8.332	     161.383	      -8.337	     161.364	     -19.628	      56.842
	17.000000000	     -10.246	     -56.919	      -8.327	     152.523	      -8.333	     152.497	     -18.446	      54.822
	17.200000000	     -10.483	     -61.765	      -8.326	     143.632	      -8.333	     143.613	     -17.583	      50.397
	17.400000000	     -10.664	     -66.949	      -8.339	     134.766	      -8.348	     134.748	     -16.946	      47.781
	17.600000000	     -10.825	     -71.357	      -8.342	     125.964	      -8.349	     125.952	     -16.370	      43.812
	17.800000000	     -10.975	     -76.196	      -8.348	     117.094	      -8.357	     117.090	     -15.874	      39.611
	18.000000000	     -11.117	     -79.961	      -8.361	     108.262	      -8.370	     108.265	     -15.356	      35.215
	18.200000000	     -11.276	     -83.896	      -8.370	      99.441	      -8.379	      99.435	     -15.077	      30.370
	18.400000000	     -11.402	     -87.134	      -8.384	      90.643	      -8.391	      90.645	     -14.726	      25.172
	18.600000000	     -11.584	     -89.837	      -8.391	      81.864	      -8.400	      81.863	     -14.565	      19.654
	18.800000000	     -11.840	     -91.962	      -8.400	      73.117	      -8.407	      73.115	     -14.356	      13.870
	19.000000000	     -12.105	     -93.648	      -8.400	      64.344	      -8.409	      64.350	     -14.395	       7.705
	19.200000000	     -12.432	     -94.568	      -8.401	      55.652	      -8.401	      55.595	     -14.427	       0.727
	19.400000000	     -12.627	     -94.689	      -8.388	      46.966	      -8.387	      46.904	     -14.678	      -6.118
	19.600000000	     -12.858	     -96.532	      -8.297	      38.062	      -8.298	      37.996	     -14.969	     -12.655
	19.800000000	     -13.731	     -94.769	      -8.339	      28.579	      -8.341	      28.513	     -15.503	     -20.042
	20.000000000	     -14.058	     -91.188	      -8.377	      19.742	      -8.378	      19.680	     -16.078	     -27.564
	20.200000000	     -14.194	     -88.160	      -8.382	      10.883	      -8.383	      10.814	     -17.159	     -34.752
	20.400000000	     -14.228	     -85.126	      -8.366	       1.878	      -8.367	       1.810	     -18.406	     -41.532
	20.600000000	     -14.333	     -85.040	      -8.372	      -7.464	      -8.372	      -7.545	     -19.754	     -48.212
	20.800000000	     -14.691	     -82.284	      -8.430	     -16.707	      -8.431	     -16.786	     -21.344	     -56.761
	21.000000000	     -14.702	     -79.272	      -8.483	     -25.814	      -8.483	     -25.892	     -23.705	     -69.952
	21.200000000	     -14.624	     -76.961	      -8.532	     -34.943	      -8.531	     -35.020	     -26.978	     -84.857
	21.400000000	     -14.479	     -75.631	      -8.584	     -44.088	      -8.585	     -44.163	     -30.357	    -119.728
	21.600000000	     -14.250	     -76.322	      -8.642	     -53.286	      -8.643	     -53.360	     -30.952	    -165.412
	21.800000000	     -14.000	     -78.067	      -8.712	     -62.508	      -8.712	     -62.576	     -27.755	     160.501
	22.000000000	     -13.844	     -80.909	      -8.787	     -71.723	      -8.788	     -71.792	     -25.327	     141.388
	22.200000000	     -13.584	     -84.448	      -8.868	     -80.946	      -8.870	     -81.009	     -23.084	     130.358
	22.400000000	     -13.405	     -89.845	      -8.955	     -90.190	      -8.955	     -90.251	     -21.550	     120.833
	22.600000000	     -13.256	     -95.562	      -9.045	     -99.430	      -9.045	     -99.495	     -20.453	     114.338
	22.800000000	     -13.089	    -102.165	      -9.133	    -108.788	      -9.135	    -108.849	     -19.618	     107.217
	23.000000000	     -12.849	    -109.475	      -9.246	    -118.312	      -9.247	    -118.371	     -18.823	     101.722
	23.200000000	     -12.660	    -115.902	      -9.401	    -127.796	      -9.402	    -127.850	     -18.056	      92.805
	23.400000000	     -12.407	    -123.321	      -9.583	    -137.299	      -9.585	    -137.357	     -17.389	      85.518
	23.600000000	     -12.310	    -129.760	      -9.851	    -146.580	      -9.853	    -146.621	     -16.739	      76.728
	23.800000000	     -11.990	    -132.145	     -10.116	    -154.558	     -10.121	    -154.597	     -16.622	      66.711
	24.000000000	     -11.232	    -136.481	     -10.129	    -162.567	     -10.133	    -162.610	     -16.263	      58.112
	24.200000000	     -10.535	    -142.635	     -10.137	    -171.825	     -10.146	    -171.813	     -16.265	      52.153
	24.400000000	      -9.978	    -148.749	     -10.223	     178.756	     -10.232	     178.760	     -15.640	      46.087
	24.600000000	      -9.544	    -154.976	     -10.338	     169.306	     -10.348	     169.299	     -15.160	      41.295
	24.800000000	      -9.098	    -159.951	     -10.483	     159.815	     -10.492	     159.817	     -14.603	      35.835
	25.000000000	      -8.767	    -165.897	     -10.652	     150.300	     -10.661	     150.311	     -14.131	      30.800