!File name = SN03_25C_5V_Phase9.s2p
!Date = 2/3/2014
!Time = 2:34 PM
!Test duration(min) = 0.07
!Test = SPars
!MPTS version = 7.120.8
!Comments = 
!set_LD1(binary) = 9
!set_LD2(binary) = 524278
!test = SPars
!date_code = 20140203
!file_name = SN03_25C_5V_Phase9.s2p
!VREF(V) = 5.000
!VREF(mA) = 0.001
# GHz   S   DB   R   50
!%	Freq(GHz)	     S11(dB)	    S11(deg)	     S21(dB)	    S21(deg)	     S12(dB)	    S12(deg)	     S22(dB)	    S22(deg)
	5.000000000	      -5.591	     168.520	     -25.336	      75.518	     -25.347	      75.495	      -1.911	    -131.569
	5.200000000	      -5.709	     157.715	     -23.798	      63.771	     -23.807	      63.762	      -2.271	    -138.701
	5.400000000	      -5.813	     146.706	     -22.327	      51.612	     -22.340	      51.629	      -2.701	    -146.235
	5.600000000	      -5.906	     135.633	     -20.975	      38.865	     -20.989	      38.860	      -3.223	    -154.402
	5.800000000	      -6.005	     124.598	     -19.708	      25.634	     -19.720	      25.631	      -3.812	    -162.956
	6.000000000	      -6.114	     113.819	     -18.570	      11.955	     -18.583	      11.945	      -4.478	    -171.898
	6.200000000	      -6.239	     103.338	     -17.570	      -1.928	     -17.582	      -1.931	      -5.205	     178.763
	6.400000000	      -6.405	      93.266	     -16.685	     -15.835	     -16.699	     -15.825	      -5.975	     169.331
	6.600000000	      -6.597	      83.692	     -15.904	     -29.696	     -15.916	     -29.687	      -6.784	     159.855
	6.800000000	      -6.826	      74.499	     -15.221	     -43.549	     -15.242	     -43.474	      -7.578	     150.441
	7.000000000	      -7.084	      65.894	     -14.638	     -57.121	     -14.658	     -57.067	      -8.379	     141.264
	7.200000000	      -7.371	      57.760	     -14.131	     -70.486	     -14.151	     -70.426	      -9.150	     132.081
	7.400000000	      -7.701	      50.162	     -13.695	     -83.614	     -13.713	     -83.569	      -9.894	     123.442
	7.600000000	      -8.014	      43.005	     -13.314	     -96.519	     -13.334	     -96.448	     -10.604	     114.897
	7.800000000	      -8.390	      36.479	     -12.986	    -109.129	     -13.006	    -109.084	     -11.301	     106.635
	8.000000000	      -8.729	      30.246	     -12.704	    -121.514	     -12.723	    -121.462	     -11.961	      98.574
	8.200000000	      -9.088	      24.378	     -12.453	    -133.687	     -12.468	    -133.660	     -12.638	      90.409
	8.400000000	      -9.441	      18.869	     -12.236	    -145.634	     -12.248	    -145.615	     -13.367	      82.379
	8.600000000	      -9.804	      13.651	     -12.046	    -157.383	     -12.058	    -157.370	     -14.116	      73.525
	8.800000000	     -10.152	       8.601	     -11.884	    -168.979	     -11.894	    -168.966	     -14.889	      64.123
	9.000000000	     -10.502	       3.824	     -11.746	     179.615	     -11.754	     179.620	     -15.692	      53.419
	9.200000000	     -10.836	      -0.848	     -11.627	     168.357	     -11.636	     168.363	     -16.429	      41.645
	9.400000000	     -11.183	      -5.046	     -11.529	     157.274	     -11.539	     157.287	     -17.050	      28.762
	9.600000000	     -11.474	      -9.066	     -11.450	     146.310	     -11.460	     146.338	     -17.458	      14.120
	9.800000000	     -11.789	     -12.652	     -11.387	     135.527	     -11.398	     135.561	     -17.557	      -0.051
	10.000000000	     -12.048	     -15.927	     -11.337	     124.891	     -11.346	     124.922	     -17.549	     -14.166
	10.200000000	     -12.267	     -18.761	     -11.301	     114.403	     -11.311	     114.428	     -17.251	     -26.858
	10.400000000	     -12.491	     -21.465	     -11.270	     104.029	     -11.280	     104.045	     -16.933	     -37.918
	10.600000000	     -12.618	     -23.817	     -11.254	      93.798	     -11.263	      93.805	     -16.509	     -48.563
	10.800000000	     -12.728	     -25.805	     -11.241	      83.675	     -11.257	      83.724	     -16.134	     -57.375
	11.000000000	     -12.806	     -27.338	     -11.233	      73.680	     -11.250	      73.726	     -15.953	     -65.490
	11.200000000	     -12.871	     -28.948	     -11.226	      63.754	     -11.242	      63.796	     -15.818	     -72.981
	11.400000000	     -12.914	     -30.104	     -11.223	      53.895	     -11.238	      53.940	     -15.823	     -79.901
	11.600000000	     -12.927	     -30.706	     -11.222	      44.119	     -11.237	      44.157	     -15.989	     -86.439
	11.800000000	     -12.988	     -31.060	     -11.225	      34.391	     -11.239	      34.433	     -16.279	     -92.597
	12.000000000	     -12.987	     -31.255	     -11.227	      24.726	     -11.243	      24.766	     -16.833	     -98.661
	12.200000000	     -12.989	     -30.461	     -11.232	      15.118	     -11.242	      15.118	     -17.504	    -104.616
	12.400000000	     -13.013	     -29.685	     -11.244	       5.532	     -11.252	       5.541	     -18.499	    -109.977
	12.600000000	     -12.989	     -28.213	     -11.260	      -3.968	     -11.269	      -3.958	     -19.756	    -116.822
	12.800000000	     -12.978	     -26.394	     -11.279	     -13.390	     -11.287	     -13.386	     -21.296	    -123.017
	13.000000000	     -12.877	     -24.786	     -11.298	     -22.738	     -11.309	     -22.735	     -23.355	    -130.129
	13.200000000	     -12.703	     -22.907	     -11.323	     -32.000	     -11.331	     -31.999	     -25.934	    -138.125
	13.400000000	     -12.528	     -21.316	     -11.346	     -41.210	     -11.356	     -41.207	     -29.291	    -147.504
	13.600000000	     -12.346	     -20.206	     -11.368	     -50.339	     -11.379	     -50.338	     -34.821	    -163.883
	13.800000000	     -12.127	     -18.996	     -11.394	     -59.388	     -11.403	     -59.384	     -41.085	     138.433
	14.000000000	     -11.947	     -18.463	     -11.415	     -68.390	     -11.423	     -68.398	     -37.027	      69.261
	14.200000000	     -11.752	     -18.005	     -11.434	     -77.345	     -11.444	     -77.339	     -32.546	      51.960
	14.400000000	     -11.590	     -17.809	     -11.452	     -86.263	     -11.463	     -86.270	     -30.246	      39.528
	14.600000000	     -11.465	     -18.115	     -11.471	     -95.130	     -11.481	     -95.126	     -28.300	      34.632
	14.800000000	     -11.353	     -18.736	     -11.488	    -103.951	     -11.498	    -103.952	     -26.825	      31.689
	15.000000000	     -11.358	     -19.423	     -11.502	    -112.730	     -11.512	    -112.741	     -26.276	      29.267
	15.200000000	     -11.391	     -20.756	     -11.512	    -121.510	     -11.522	    -121.518	     -25.772	      28.266
	15.400000000	     -11.505	     -22.213	     -11.519	    -130.258	     -11.528	    -130.259	     -25.536	      30.362
	15.600000000	     -11.647	     -24.040	     -11.521	    -139.058	     -11.536	    -139.026	     -25.053	      33.142
	15.800000000	     -11.848	     -26.410	     -11.527	    -147.808	     -11.542	    -147.767	     -24.550	      37.750
	16.000000000	     -12.122	     -29.126	     -11.532	    -156.522	     -11.549	    -156.488	     -23.789	      41.540
	16.200000000	     -12.350	     -32.025	     -11.535	    -165.229	     -11.549	    -165.214	     -22.985	      45.253
	16.400000000	     -12.664	     -35.494	     -11.533	    -173.961	     -11.546	    -173.949	     -22.155	      48.043
	16.600000000	     -12.992	     -39.037	     -11.530	     177.313	     -11.542	     177.309	     -21.339	      50.907
	16.800000000	     -13.175	     -42.768	     -11.528	     168.525	     -11.540	     168.524	     -20.586	      52.568
	17.000000000	     -13.390	     -46.596	     -11.535	     159.679	     -11.546	     159.681	     -19.679	      52.039
	17.200000000	     -13.530	     -50.647	     -11.553	     150.830	     -11.565	     150.836	     -19.015	      49.041
	17.400000000	     -13.608	     -55.316	     -11.586	     142.073	     -11.599	     142.084	     -18.531	      48.335
	17.600000000	     -13.605	     -59.042	     -11.599	     133.393	     -11.614	     133.419	     -18.052	      46.103
	17.800000000	     -13.586	     -63.560	     -11.621	     124.641	     -11.638	     124.680	     -17.613	      43.644
	18.000000000	     -13.511	     -66.884	     -11.651	     115.932	     -11.666	     115.972	     -17.105	      40.945
	18.200000000	     -13.440	     -70.562	     -11.677	     107.268	     -11.692	     107.300	     -16.848	      37.869
	18.400000000	     -13.297	     -73.735	     -11.709	      98.645	     -11.723	      98.680	     -16.481	      34.376
	18.600000000	     -13.196	     -76.433	     -11.735	      90.047	     -11.750	      90.083	     -16.303	      30.742
	18.800000000	     -13.161	     -78.674	     -11.762	      81.496	     -11.776	      81.538	     -16.042	      26.823
	19.000000000	     -13.129	     -80.722	     -11.779	      72.957	     -11.795	      72.996	     -16.035	      22.908
	19.200000000	     -13.162	     -82.220	     -11.799	      64.551	     -11.801	      64.498	     -16.006	      17.999
	19.400000000	     -13.076	     -83.319	     -11.800	      56.119	     -11.802	      56.069	     -16.182	      13.793
	19.600000000	     -13.052	     -86.341	     -11.733	      47.498	     -11.737	      47.453	     -16.341	      10.767
	19.800000000	     -13.654	     -86.183	     -11.783	      38.430	     -11.789	      38.396	     -16.550	       7.096
	20.000000000	     -13.826	     -84.818	     -11.817	      29.964	     -11.820	      29.924	     -16.804	       2.233
	20.200000000	     -13.912	     -84.292	     -11.815	      21.463	     -11.817	      21.419	     -17.492	      -0.400
	20.400000000	     -14.018	     -83.825	     -11.788	      12.805	     -11.792	      12.767	     -18.166	      -2.188
	20.600000000	     -14.327	     -86.182	     -11.779	       3.812	     -11.783	       3.771	     -18.798	      -3.388
	20.800000000	     -15.037	     -85.570	     -11.818	      -5.091	     -11.820	      -5.147	     -19.486	      -5.016
	21.000000000	     -15.539	     -83.898	     -11.844	     -13.859	     -11.847	     -13.910	     -20.700	      -5.789
	21.200000000	     -16.053	     -81.820	     -11.863	     -22.683	     -11.866	     -22.722	     -21.736	      -3.362
	21.400000000	     -16.544	     -79.407	     -11.882	     -31.549	     -11.887	     -31.591	     -23.368	       0.653
	21.600000000	     -16.886	     -77.940	     -11.905	     -40.504	     -11.911	     -40.562	     -24.565	       6.558
	21.800000000	     -17.109	     -76.630	     -11.938	     -49.509	     -11.944	     -49.563	     -25.914	      17.152
	22.000000000	     -17.333	     -75.817	     -11.979	     -58.536	     -11.985	     -58.575	     -26.112	      27.589
	22.200000000	     -17.267	     -75.542	     -12.023	     -67.590	     -12.030	     -67.621	     -26.199	      38.985
	22.400000000	     -17.257	     -77.628	     -12.072	     -76.694	     -12.076	     -76.733	     -25.504	      46.518
	22.600000000	     -17.194	     -80.084	     -12.127	     -85.850	     -12.131	     -85.891	     -25.076	      51.395
	22.800000000	     -17.069	     -83.913	     -12.184	     -95.133	     -12.189	     -95.172	     -24.356	      52.725
	23.000000000	     -16.798	     -89.265	     -12.273	    -104.589	     -12.277	    -104.625	     -23.829	      54.563
	23.200000000	     -16.474	     -93.599	     -12.396	    -113.993	     -12.401	    -114.030	     -22.619	      51.642
	23.400000000	     -16.108	    -100.116	     -12.550	    -123.516	     -12.557	    -123.534	     -21.818	      49.655
	23.600000000	     -15.856	    -105.273	     -12.811	    -132.811	     -12.819	    -132.830	     -20.689	      45.503
	23.800000000	     -15.060	    -106.578	     -13.076	    -140.639	     -13.085	    -140.652	     -20.017	      36.659
	24.000000000	     -13.920	    -111.349	     -13.052	    -148.456	     -13.061	    -148.464	     -19.160	      29.311
	24.200000000	     -12.938	    -118.332	     -13.022	    -157.704	     -13.037	    -157.659	     -19.194	      23.055
	24.400000000	     -12.100	    -125.172	     -13.074	    -167.187	     -13.090	    -167.134	     -18.480	      19.682
	24.600000000	     -11.418	    -132.047	     -13.167	    -176.740	     -13.182	    -176.688	     -17.983	      17.149
	24.800000000	     -10.652	    -137.824	     -13.296	     173.673	     -13.311	     173.723	     -17.342	      13.722
	25.000000000	     -10.089	    -144.571	     -13.451	     164.095	     -13.465	     164.131	     -16.822	      10.360